date Tue May 26 15:03:25.354 2026
base hex  timestamps absolute
internal events logged
Begin Triggerblock Tue May 26 15:03:25.338 2026
 0.000000 Start of measurement
 0.000000 1  264             Rx   d 8 01 04 00 1A 17 40 00 00
 0.008011 1  251             Rx   d 8 00 00 00 11 FB 21 C4 6C
 0.010021 1  252             Rx   d 8 00 00 00 19 FB 22 EE 6B
 0.012019 1  253             Rx   d 8 00 00 00 20 04 DF 02 72
 0.014047 1  254             Rx   d 8 00 00 00 0C 04 DE 8C 7C
 0.016102 1  241             Rx   d 8 AA 00 00 00 00 00 00 FB
 0.018727 1  221             Rx   d 8 00 00 00 00 00 00 00 00
 0.018967 1  311             Rx   d 8 00 03 3A C6 00 03 3A 01
 0.030318 1  251             Rx   d 8 00 00 00 14 FB 21 C4 6C
 0.030521 1  252             Rx   d 8 00 00 00 19 FB 22 EE 6B
 0.032020 1  253             Rx   d 8 00 00 00 20 04 DF 02 72
 0.034056 1  254             Rx   d 8 00 00 00 0C 04 DE 8C 7C
 0.036076 1  241             Rx   d 8 AA 00 00 00 00 00 00 FC
 0.038735 1  221             Rx   d 8 00 00 00 00 00 00 00 00
 0.038965 1  311             Rx   d 8 00 03 3A C6 00 03 3A 01
 0.048065 1  251             Rx   d 8 00 00 00 14 FB 21 C4 6C
 0.050092 1  252             Rx   d 8 00 00 00 19 FB 22 EE 6B
 0.052074 1  253             Rx   d 8 00 00 00 20 04 DF 02 72
 0.054065 1  254             Rx   d 8 00 00 00 0C 04 DE 8C 7C
 0.056127 1  241             Rx   d 8 AA 00 00 00 00 00 00 FD
 0.058729 1  221             Rx   d 8 00 00 00 00 00 00 00 00
 0.058957 1  311             Rx   d 8 00 03 3A C6 00 03 3A 01
 0.067088 1  261             Rx   d 8 01 04 00 1A 17 40 00 00
 0.068087 1  251             Rx   d 8 00 00 00 14 FB 21 C4 6C
 0.070068 1  252             Rx   d 8 00 00 00 19 FB 22 EE 6B
 0.072084 1  253             Rx   d 8 00 00 00 20 04 DF 02 72
 0.074086 1  254             Rx   d 8 00 00 00 0C 04 DE 8C 7C
 0.076119 1  241             Rx   d 8 AA 00 00 00 00 00 00 FE
 0.078522 1  262             Rx   d 8 01 00 00 1B 18 40 00 00
 0.078827 1  221             Rx   d 8 00 00 00 00 00 00 00 00
 0.078995 1  311             Rx   d 8 00 03 3A C6 00 03 3A 01
 0.086138 1  211             Rx   d 8 00 01 00 FF 00 00 00 00
 0.088097 1  251             Rx   d 8 00 00 00 14 FB 21 C4 6C
 0.089097 1  263             Rx   d 8 01 00 00 1A 17 40 00 00
 0.090081 1  252             Rx   d 8 00 00 00 19 FB 22 EE 6B
 0.092092 1  253             Rx   d 8 00 00 00 1E 04 DF 02 72
 0.094101 1  254             Rx   d 8 00 00 00 0C 04 DE 8C 7C
 0.096182 1  241             Rx   d 8 AA 00 00 00 00 00 00 FF
 0.098731 1  221             Rx   d 8 00 00 00 00 00 00 00 00
 0.098979 1  311             Rx   d 8 00 03 3A C6 00 03 3A 01
 0.100104 1  264             Rx   d 8 01 04 00 1A 17 40 00 00
 0.106227 1  231             Rx   d 8 00 02 3B 02 2C 00 00 00
 0.108108 1  251             Rx   d 8 00 00 00 14 FB 21 C4 6C
 0.110110 1  252             Rx   d 8 00 00 00 19 FB 22 EE 6B
 0.112114 1  253             Rx   d 8 00 00 00 20 04 DF 02 72
 0.114116 1  254             Rx   d 8 00 00 00 0C 04 DE 8C 7C
 0.116118 1  241             Rx   d 8 AA 00 00 00 00 00 00 00
 0.118728 1  221             Rx   d 8 00 00 00 00 00 00 00 00
 0.118965 1  311             Rx   d 8 00 03 3A C6 00 03 3A 01
 0.130457 1  251             Rx   d 8 00 00 00 14 FB 21 C4 6C
 0.130685 1  252             Rx   d 8 00 00 00 19 FB 22 EE 6B
 0.132126 1  253             Rx   d 8 00 00 00 20 04 DF 02 72
 0.134126 1  254             Rx   d 8 00 00 00 0C 04 DE 8C 7C
 0.136217 1  241             Rx   d 8 AA 00 00 00 00 00 00 01
 0.138740 1  221             Rx   d 8 00 00 00 00 00 00 00 00
 0.138975 1  311             Rx   d 8 00 03 3A C6 00 03 3A 01
 0.148137 1  251             Rx   d 8 00 00 00 14 FB 21 C4 6C
 0.150187 1  252             Rx   d 8 00 00 00 19 FB 22 EE 6B
 0.152198 1  253             Rx   d 8 00 00 00 22 04 DF 02 72
 0.154145 1  254             Rx   d 8 00 00 00 0D 04 DE 8C 7C
 0.156165 1  241             Rx   d 8 AA 00 00 00 00 00 00 02
 0.158730 1  221             Rx   d 8 00 00 00 00 00 00 00 00
 0.158967 1  311             Rx   d 8 00 03 3A C6 00 03 3A 01
 0.167190 1  261             Rx   d 8 01 04 00 1A 17 40 00 00
 0.168181 1  251             Rx   d 8 00 00 00 11 FB 21 C4 6C
 0.170201 1  252             Rx   d 8 00 00 00 19 FB 22 EE 6B
 0.172196 1  253             Rx   d 8 00 00 00 22 04 DF 02 72
 0.174173 1  254             Rx   d 8 00 00 00 0D 04 DE 8C 7C
 0.176226 1  241             Rx   d 8 AA 00 00 00 00 00 00 03
 0.178202 1  262             Rx   d 8 01 00 00 1B 18 40 00 00
 0.178744 1  221             Rx   d 8 00 00 00 00 00 00 00 00
 0.178981 1  311             Rx   d 8 00 03 3A C6 00 03 3A 01
 0.188192 1  251             Rx   d 8 00 00 00 14 FB 21 C4 6C
 0.189218 1  263             Rx   d 8 01 00 00 1A 17 40 00 00
 0.190215 1  252             Rx   d 8 00 00 00 19 FB 22 EE 6B
 0.192227 1  253             Rx   d 8 00 00 00 20 04 DF 02 72
 0.194213 1  254             Rx   d 8 00 00 00 0F 04 DE 8C 7C
 0.196251 1  241             Rx   d 8 AA 00 00 00 00 00 00 04
 0.198753 1  221             Rx   d 8 00 00 00 00 00 00 00 00
 0.198974 1  311             Rx   d 8 00 03 3A C6 00 03 3A 01
 0.200200 1  264             Rx   d 8 01 04 00 1A 17 40 00 00
 0.208209 1  251             Rx   d 8 00 00 00 11 FB 21 C4 6C
 0.210200 1  252             Rx   d 8 00 00 00 19 FB 22 EE 6B
 0.212225 1  253             Rx   d 8 00 00 00 20 04 DF 02 72
 0.214224 1  254             Rx   d 8 00 00 00 0C 04 DE 8C 7C
 0.216271 1  241             Rx   d 8 AA 00 00 00 00 00 00 05
 0.218748 1  221             Rx   d 8 00 00 00 00 00 00 00 00
 0.218968 1  311             Rx   d 8 00 03 3A C6 00 03 3A 01
 0.230526 1  251             Rx   d 8 00 00 00 14 FB 21 C4 6C
 0.230748 1  252             Rx   d 8 00 00 00 19 FB 22 EE 6B
 0.232228 1  253             Rx   d 8 00 00 00 20 04 DF 02 72
 0.234228 1  254             Rx   d 8 00 00 00 0C 04 DE 8C 7C
 0.236324 1  241             Rx   d 8 AA 00 00 00 00 00 00 06
 0.238739 1  221             Rx   d 8 00 00 00 00 00 00 00 00
 0.238974 1  311             Rx   d 8 00 03 3A C6 00 03 3A 01
 0.248250 1  251             Rx   d 8 00 00 00 14 FB 21 C4 6C
 0.250242 1  252             Rx   d 8 00 00 00 19 FB 22 EE 6B
 0.252261 1  253             Rx   d 8 00 00 00 20 04 DF 02 72
 0.254259 1  254             Rx   d 8 00 00 00 0C 04 DE 8C 7C
 0.256341 1  241             Rx   d 8 AA 00 00 00 00 00 00 07
 0.258740 1  221             Rx   d 8 00 00 00 00 00 00 00 00
 0.258987 1  311             Rx   d 8 00 03 3A C6 00 03 3A 01
 0.267279 1  261             Rx   d 8 01 04 00 1A 17 40 00 00
 0.268264 1  251             Rx   d 8 00 00 00 14 FB 21 C4 6C
 0.270273 1  252             Rx   d 8 00 00 00 19 FB 22 EE 6B
 0.272272 1  253             Rx   d 8 00 00 00 20 04 DF 02 72
 0.274302 1  254             Rx   d 8 00 00 00 0D 04 DE 8C 7C
 0.276339 1  241             Rx   d 8 AA 00 00 00 00 00 00 08
 0.278751 1  221             Rx   d 8 00 00 00 00 00 00 00 00
 0.278993 1  311             Rx   d 8 00 03 3A C6 00 03 3A 01
 0.279228 1  262             Rx   d 8 01 00 00 1B 18 40 00 00
 0.286318 1  211             Rx   d 8 00 01 01 00 00 00 00 00
 0.288319 1  251             Rx   d 8 00 00 00 14 FB 21 C4 6C
 0.289292 1  263             Rx   d 8 01 00 00 1A 17 40 00 00
 0.290308 1  252             Rx   d 8 00 00 00 19 FB 22 EE 6B
 0.292291 1  253             Rx   d 8 00 00 00 20 04 DF 02 72
 0.294306 1  254             Rx   d 8 00 00 00 0C 04 DE 8C 7C
 0.296351 1  241             Rx   d 8 AA 00 00 00 00 00 00 09
 0.298755 1  221             Rx   d 8 00 00 00 00 00 00 00 00
 0.298979 1  311             Rx   d 8 00 03 3A C6 00 03 3A 01
 0.300305 1  264             Rx   d 8 01 04 00 1A 17 40 00 00
 0.308348 1  251             Rx   d 8 00 00 00 14 FB 21 C4 6C
 0.310351 1  252             Rx   d 8 00 00 00 19 FB 22 EE 6B
 0.312325 1  253             Rx   d 8 00 00 00 20 04 DF 02 72
 0.314357 1  254             Rx   d 8 00 00 00 0C 04 DE 8C 7C
 0.316350 1  241             Rx   d 8 AA 00 00 00 00 00 00 0A
 0.316604 1  361             Rx   d 8 2C 58 01 06 FF F8 00 E4
 0.318756 1  221             Rx   d 8 00 00 00 00 00 00 00 00
 0.318992 1  311             Rx   d 8 00 03 3A C6 00 03 3A 01
 0.330615 1  251             Rx   d 8 00 00 00 14 FB 21 C4 6C
 0.330863 1  252             Rx   d 8 00 00 00 19 FB 22 EE 6B
 0.332337 1  253             Rx   d 8 00 00 00 20 04 DF 02 72
 0.334350 1  254             Rx   d 8 00 00 00 0D 04 DE 8C 7C
 0.336453 1  241             Rx   d 8 AA 00 00 00 00 00 00 0B
 0.338757 1  221             Rx   d 8 00 00 00 00 00 00 00 00
 0.338992 1  311             Rx   d 8 00 03 3A C6 00 03 3A 01
 0.348355 1  251             Rx   d 8 00 00 00 14 FB 21 C4 6C
 0.350353 1  252             Rx   d 8 00 00 00 19 FB 22 EE 6B
 0.352358 1  253             Rx   d 8 00 00 00 20 04 DF 02 72
 0.354362 1  254             Rx   d 8 00 00 00 0D 04 DE 8C 7C
 0.356468 1  241             Rx   d 8 AA 00 00 00 00 00 00 0C
 0.358759 1  221             Rx   d 8 00 00 00 00 00 00 00 00
 0.359000 1  311             Rx   d 8 00 03 3A C6 00 03 3A 01
 0.367380 1  261             Rx   d 8 01 04 00 1A 17 40 00 00
 0.368364 1  251             Rx   d 8 00 00 00 16 FB 21 C4 6C
 0.370358 1  252             Rx   d 8 00 00 00 19 FB 22 EE 6B
 0.372370 1  253             Rx   d 8 00 00 00 1E 04 DF 02 72
 0.374388 1  254             Rx   d 8 00 00 00 0C 04 DE 8C 7C
 0.376443 1  241             Rx   d 8 AA 00 00 00 00 00 00 0D
 0.378372 1  262             Rx   d 8 01 00 00 1B 18 40 00 00
 0.378752 1  221             Rx   d 8 00 00 00 00 00 00 00 00
 0.378989 1  311             Rx   d 8 00 03 3A C6 00 03 3A 01
 0.388388 1  251             Rx   d 8 00 00 00 14 FB 21 C4 6C
 0.389393 1  263             Rx   d 8 01 00 00 1A 17 40 00 00
 0.390396 1  252             Rx   d 8 00 00 00 19 FB 22 EE 6B
 0.392452 1  253             Rx   d 8 00 00 00 1E 04 DF 02 72
 0.394445 1  254             Rx   d 8 00 00 00 0C 04 DE 8C 7C
 0.396472 1  241             Rx   d 8 AA 00 00 00 00 00 00 0E
 0.398774 1  221             Rx   d 8 00 00 00 00 00 00 00 00
 0.399004 1  311             Rx   d 8 00 03 3A C6 00 03 3A 01
 0.400398 1  264             Rx   d 8 01 04 00 1A 17 40 00 00
 0.408423 1  251             Rx   d 8 00 00 00 11 FB 21 C4 6C
 0.410419 1  252             Rx   d 8 00 00 00 19 FB 22 EE 6B
 0.412452 1  253             Rx   d 8 00 00 00 1E 04 DF 02 72
 0.414435 1  254             Rx   d 8 00 00 00 0D 04 DE 8C 7C
 0.416420 1  241             Rx   d 8 AA 00 00 00 00 00 00 0F
 0.418770 1  221             Rx   d 8 00 00 00 00 00 00 00 00
 0.419014 1  311             Rx   d 8 00 03 3A C6 00 03 3A 01
 0.430727 1  251             Rx   d 8 00 00 00 11 FB 21 C4 6C
 0.430966 1  252             Rx   d 8 00 00 00 19 FB 22 EE 6B
 0.432468 1  253             Rx   d 8 00 00 00 20 04 DF 02 72
 0.434459 1  254             Rx   d 8 00 00 00 0C 04 DE 8C 7C
 0.436510 1  241             Rx   d 8 AA 00 00 00 00 00 00 10
 0.438775 1  221             Rx   d 8 00 00 00 00 00 00 00 00
 0.439003 1  311             Rx   d 8 00 03 3A C6 00 03 3A 01
 0.448441 1  251             Rx   d 8 00 00 00 14 FB 21 C4 6C
 0.450465 1  252             Rx   d 8 00 00 00 19 FB 22 EE 6B
 0.452460 1  253             Rx   d 8 00 00 00 20 04 DF 02 72
 0.454465 1  254             Rx   d 8 00 00 00 0C 04 DE 8C 7C
 0.456519 1  241             Rx   d 8 AA 00 00 00 00 00 00 11
 0.458765 1  221             Rx   d 8 00 00 00 00 00 00 00 00
 0.459001 1  311             Rx   d 8 00 03 3A C6 00 03 3A 01
 0.467468 1  261             Rx   d 8 01 04 00 1A 17 40 00 00
 0.468472 1  251             Rx   d 8 00 00 00 14 FB 21 C4 6C
 0.470474 1  252             Rx   d 8 00 00 00 19 FB 22 EE 6B
 0.472476 1  253             Rx   d 8 00 00 00 20 04 DF 02 72
 0.474491 1  254             Rx   d 8 00 00 00 0D 04 DE 8C 7C
 0.476555 1  241             Rx   d 8 AA 00 00 00 00 00 00 12
 0.478772 1  221             Rx   d 8 00 00 00 00 00 00 00 00
 0.479011 1  311             Rx   d 8 00 03 3A C6 00 03 3A 01
 0.479268 1  262             Rx   d 8 01 00 00 1B 18 40 00 00
 0.486575 1  211             Rx   d 8 00 01 01 00 00 00 00 00
 0.488483 1  251             Rx   d 8 00 00 00 14 FB 21 C4 6C
 0.489479 1  263             Rx   d 8 01 00 00 1A 17 40 00 00
 0.490485 1  252             Rx   d 8 00 00 00 19 FB 22 EE 6B
 0.492498 1  253             Rx   d 8 00 00 00 20 04 DF 02 72
 0.494495 1  254             Rx   d 8 00 00 00 0C 04 DE 8C 7C
 0.496564 1  241             Rx   d 8 AA 00 00 00 00 00 00 13
 0.498812 1  221             Rx   d 8 00 00 00 00 00 00 00 00
 0.499017 1  311             Rx   d 8 00 03 3A C6 00 03 3A 01
 0.500506 1  264             Rx   d 8 01 04 00 1A 17 40 00 00
 0.508502 1  251             Rx   d 8 00 00 00 14 FB 21 C4 6C
 0.510514 1  252             Rx   d 8 00 00 00 19 FB 22 EE 6B
 0.512510 1  253             Rx   d 8 00 00 00 20 04 DF 02 72
 0.514525 1  254             Rx   d 8 00 00 00 0C 04 DE 8C 7C
 0.516602 1  241             Rx   d 8 AA 00 00 00 00 00 00 14
 0.518824 1  221             Rx   d 8 00 00 00 00 00 00 00 00
 0.519009 1  311             Rx   d 8 00 03 3A C6 00 03 3A 01
 0.530848 1  251             Rx   d 8 00 00 00 14 FB 21 C4 6C
 0.531071 1  252             Rx   d 8 00 00 00 19 FB 22 EE 6B
 0.532578 1  253             Rx   d 8 00 00 00 20 04 DF 02 72
 0.534564 1  254             Rx   d 8 00 00 00 0C 04 DE 8C 7C
 0.536595 1  241             Rx   d 8 AA 00 00 00 00 00 00 15
 0.538807 1  221             Rx   d 8 00 00 00 00 00 00 00 00
 0.539018 1  311             Rx   d 8 00 03 3A C6 00 03 3A 01
 0.548578 1  251             Rx   d 8 00 00 00 14 FB 21 C4 6C
 0.550567 1  252             Rx   d 8 00 00 00 19 FB 22 EE 6B
 0.552593 1  253             Rx   d 8 00 00 00 1E 04 DF 02 72
 0.554603 1  254             Rx   d 8 00 00 00 0C 04 DE 8C 7C
 0.556699 1  241             Rx   d 8 AA 00 00 00 00 00 00 16
 0.558811 1  221             Rx   d 8 00 00 00 00 00 00 00 00
 0.559011 1  311             Rx   d 8 00 03 3A C6 00 03 3A 01
 0.567600 1  261             Rx   d 8 01 04 00 1A 17 40 00 00
 0.568600 1  251             Rx   d 8 00 00 00 14 FB 21 C4 6C
 0.570606 1  252             Rx   d 8 00 00 00 19 FB 22 EE 6B
 0.572585 1  253             Rx   d 8 00 00 00 20 04 DF 02 72
 0.574605 1  254             Rx   d 8 00 00 00 0C 04 DE 8C 7C
 0.576682 1  241             Rx   d 8 AA 00 00 00 00 00 00 17
 0.578586 1  262             Rx   d 8 01 00 00 1B 18 40 00 00
 0.578858 1  221             Rx   d 8 00 00 00 00 00 00 00 00
 0.579096 1  311             Rx   d 8 00 03 3A C6 00 03 3A 01
 0.588606 1  251             Rx   d 8 00 00 00 11 FB 21 C4 6C
 0.589597 1  263             Rx   d 8 01 00 00 1A 17 40 00 00
 0.590593 1  252             Rx   d 8 00 00 00 19 FB 22 EE 6B
 0.592600 1  253             Rx   d 8 00 00 00 1E 04 DF 02 72
 0.594613 1  254             Rx   d 8 00 00 00 10 04 DE 8C 7C
 0.596696 1  241             Rx   d 8 AA 00 00 00 00 00 00 18
 0.598820 1  221             Rx   d 8 00 00 00 00 00 00 00 00
 0.599020 1  311             Rx   d 8 00 03 3A C6 00 03 3A 01
 0.600601 1  264             Rx   d 8 01 04 00 1A 17 40 00 00
 0.602192 1  421             Tx   d 1 01
 0.606686 1  231             Rx   d 8 00 02 3B 02 40 00 00 00
 0.608609 1  251             Rx   d 8 00 00 00 18 FB 21 C4 6C
 0.610611 1  252             Rx   d 8 00 00 00 19 FB 22 EE 6B
 0.612688 1  253             Rx   d 8 00 00 00 22 04 DF 02 72
 0.614699 1  254             Rx   d 8 00 00 00 0D 04 DE 8C 7C
 0.616681 1  241             Rx   d 8 AA 00 00 00 00 00 00 19
 0.618825 1  221             Rx   d 8 00 00 00 00 00 00 00 00
 0.619020 1  311             Rx   d 8 00 03 3A C6 00 03 3A 01
 0.630941 1  251             Rx   d 8 00 00 00 11 FB 21 C4 6C
 0.631174 1  252             Rx   d 8 00 00 00 19 FB 22 EE 6B
 0.632684 1  253             Rx   d 8 00 00 00 20 04 DF 02 72
 0.634689 1  254             Rx   d 8 00 00 00 0C 04 DE 8C 7C
 0.636709 1  241             Rx   d 8 AA 00 00 00 00 00 00 1A
 0.638824 1  221             Rx   d 8 00 00 00 00 00 00 00 00
 0.639020 1  311             Rx   d 8 00 03 3A C6 00 03 3A 01
 0.648685 1  251             Rx   d 8 00 00 00 14 FB 21 C4 6C
 0.650687 1  252             Rx   d 8 00 00 00 19 FB 22 EE 6B
 0.652684 1  253             Rx   d 8 00 00 00 20 04 DF 02 72
 0.654689 1  254             Rx   d 8 00 00 00 0D 04 DE 8C 7C
 0.656734 1  241             Rx   d 8 AA 00 00 00 00 00 00 1B
 0.658844 1  221             Rx   d 8 00 00 00 00 00 00 00 00
 0.659057 1  311             Rx   d 8 00 03 3A C6 00 03 3A 01
 0.667709 1  261             Rx   d 8 01 04 00 1A 17 40 00 00
 0.668690 1  251             Rx   d 8 00 00 00 14 FB 21 C4 6C
 0.670688 1  252             Rx   d 8 00 00 00 19 FB 22 EE 6B
 0.672687 1  253             Rx   d 8 00 00 00 20 04 DF 02 72
 0.674679 1  254             Rx   d 8 00 00 00 0C 04 DE 8C 7C
 0.676730 1  241             Rx   d 8 AA 00 00 00 00 00 00 1C
 0.678831 1  221             Rx   d 8 00 00 00 00 00 00 00 00
 0.679025 1  311             Rx   d 8 00 03 3A C6 00 03 3A 01
 0.679331 1  262             Rx   d 8 01 00 00 1B 18 40 00 00
 0.686693 1  211             Rx   d 8 00 01 01 00 00 00 00 00
 0.688731 1  251             Rx   d 8 00 00 00 14 FB 21 C4 6C
 0.689713 1  263             Rx   d 8 01 00 00 1A 17 40 00 00
 0.690716 1  252             Rx   d 8 00 00 00 19 FB 22 EE 6B
 0.692713 1  253             Rx   d 8 00 00 00 20 04 DF 02 72
 0.694722 1  254             Rx   d 8 00 00 00 0D 04 DE 8C 7C
 0.696755 1  241             Rx   d 8 AA 00 00 00 00 00 00 1D
 0.698833 1  221             Rx   d 8 00 00 00 00 00 00 00 00
 0.699027 1  311             Rx   d 8 00 03 3A C6 00 03 3A 01
 0.700709 1  264             Rx   d 8 01 04 00 1A 17 40 00 00
 0.708708 1  251             Rx   d 8 00 00 00 14 FB 21 C4 6C
 0.710732 1  252             Rx   d 8 00 00 00 19 FB 22 EE 6B
 0.712729 1  253             Rx   d 8 00 00 00 20 04 DF 02 72
 0.714725 1  254             Rx   d 8 00 00 00 0C 04 DE 8C 7C
 0.716717 1  241             Rx   d 8 AA 00 00 00 00 00 00 1E
 0.718852 1  221             Rx   d 8 00 00 00 00 00 00 00 00
 0.719075 1  311             Rx   d 8 00 03 3A C6 00 03 3A 01
 0.731051 1  251             Rx   d 8 00 00 00 14 FB 21 C4 6C
 0.731290 1  252             Rx   d 8 00 00 00 19 FB 22 EE 6B
 0.732749 1  253             Rx   d 8 00 00 00 20 04 DF 02 72
 0.734743 1  254             Rx   d 8 00 00 00 0D 04 DE 8C 7C
 0.736855 1  241             Rx   d 8 AA 00 00 00 00 00 00 1F
 0.738836 1  221             Rx   d 8 00 00 00 00 00 00 00 00
 0.739064 1  311             Rx   d 8 00 03 3A C6 00 03 3A 01
 0.748760 1  251             Rx   d 8 00 00 00 14 FB 21 C4 6C
 0.750751 1  252             Rx   d 8 00 00 00 19 FB 22 EE 6B
 0.752753 1  253             Rx   d 8 00 00 00 20 04 DF 02 72
 0.754770 1  254             Rx   d 8 00 00 00 0D 04 DE 8C 7C
 0.756836 1  241             Rx   d 8 AA 00 00 00 00 00 00 20
 0.758808 1  221             Rx   d 8 00 00 00 00 00 00 00 00
 0.759055 1  311             Rx   d 8 00 03 3A C6 00 03 3A 01
 0.767772 1  261             Rx   d 8 01 04 00 1A 17 40 00 00
 0.768824 1  251             Rx   d 8 00 00 00 14 FB 21 C4 6C
 0.770770 1  252             Rx   d 8 00 00 00 19 FB 22 EE 6B
 0.772818 1  253             Rx   d 8 00 00 00 20 04 DF 02 72
 0.774827 1  254             Rx   d 8 00 00 00 0D 04 DE 8C 7C
 0.776811 1  241             Rx   d 8 AA 00 00 00 00 00 00 21
 0.778851 1  221             Rx   d 8 00 00 00 00 00 00 00 00
 0.779100 1  311             Rx   d 8 00 03 3A C6 00 03 3A 01
 0.779336 1  262             Rx   d 8 01 00 00 1B 18 40 00 00
 0.788807 1  251             Rx   d 8 00 00 00 14 FB 21 C4 6C
 0.789831 1  263             Rx   d 8 01 00 00 1A 17 40 00 00
 0.790799 1  252             Rx   d 8 00 00 00 19 FB 22 EE 6B
 0.792811 1  253             Rx   d 8 00 00 00 22 04 DF 02 72
 0.794829 1  254             Rx   d 8 00 00 00 0F 04 DE 8C 7C
 0.796867 1  241             Rx   d 8 AA 00 00 00 00 00 00 22
 0.798847 1  221             Rx   d 8 00 00 00 00 00 00 00 00
 0.799090 1  311             Rx   d 8 00 03 3A C6 00 03 3A 01
 0.800819 1  264             Rx   d 8 01 04 00 1A 17 40 00 00
 0.804847 1  111             Tx   d 8 00 4B 00 00 00 00 00 00
 0.808856 1  251             Rx   d 8 00 00 00 14 FB 21 C4 6C
 0.810853 1  252             Rx   d 8 00 00 00 19 FB 22 EE 6B
 0.812840 1  253             Rx   d 8 00 00 00 20 04 DF 02 72
 0.814898 1  254             Rx   d 8 00 00 00 0F 04 DE 8C 7C
 0.816887 1  361             Rx   d 8 2C 58 01 06 FF F8 00 E4
 0.817119 1  241             Rx   d 8 AA 00 00 00 00 00 00 23
 0.818856 1  221             Rx   d 8 00 00 00 00 00 00 00 00
 0.819075 1  311             Rx   d 8 00 03 3A C6 00 03 3A 01
 0.831127 1  251             Rx   d 8 00 00 00 11 FB 21 C4 6C
 0.831354 1  252             Rx   d 8 00 00 00 10 FB 22 EE 6B
 0.832855 1  253             Rx   d 8 00 00 00 1E 04 DF 02 72
 0.834840 1  254             Rx   d 8 00 00 00 05 04 DE 8C 7D
 0.836921 1  241             Rx   d 8 AA 00 00 00 00 00 00 24
 0.838819 1  221             Rx   d 8 00 00 00 00 00 00 00 00
 0.839065 1  311             Rx   d 8 00 03 3A C6 00 03 3A 01
 0.848851 1  251             Rx   d 8 00 00 00 01 FB 21 C4 6A
 0.850850 1  252             Rx   d 8 00 00 00 00 FB 22 EE 68
 0.852872 1  253             Rx   d 8 00 00 00 08 04 DF 02 75
 0.854861 1  254             Rx   d 8 00 00 00 0C 04 DE 8C 80
 0.856889 1  241             Rx   d 8 AA 00 00 00 00 00 00 25
 0.856985 1  111             Tx   d 8 00 4B 00 00 00 00 00 00
 0.858836 1  221             Rx   d 8 00 00 00 00 00 00 00 00
 0.859101 1  311             Rx   d 8 00 03 3A C6 00 03 3A 01
 0.867884 1  261             Rx   d 8 01 04 00 1A 17 40 00 00
 0.868878 1  251             Rx   d 8 00 00 00 19 FB 21 C4 63
 0.870874 1  252             Rx   d 8 FF F4 00 12 FB 22 ED B9
 0.872884 1  253             Rx   d 8 00 08 00 00 04 DF 03 1E
 0.874888 1  254             Rx   d 8 00 10 00 16 04 DE 8D 5C
 0.876942 1  241             Rx   d 8 AA 00 00 00 00 00 00 26
 0.878895 1  221             Rx   d 8 00 07 00 05 00 00 00 00
 0.879136 1  311             Rx   d 8 00 03 3A C6 00 03 3A 02
 0.879389 1  262             Rx   d 8 01 00 00 1B 18 40 00 00
 0.886962 1  211             Rx   d 8 00 01 01 00 00 00 00 00
 0.888890 1  251             Rx   d 8 FF DE 00 23 FB 21 C3 09
 0.889912 1  263             Rx   d 8 01 00 00 1A 17 40 00 00
 0.890894 1  252             Rx   d 8 FF B9 00 22 FB 22 EB DC
 0.892895 1  253             Rx   d 8 00 26 00 0C 04 DF 03 F2
 0.894936 1  254             Rx   d 8 00 54 00 20 04 DE 8F 76
 0.896971 1  241             Rx   d 8 AA 00 00 00 00 00 00 27
 0.898888 1  221             Rx   d 8 00 1F FF FE 00 00 00 00
 0.899140 1  311             Rx   d 8 00 03 3A C6 00 03 3A 02
 0.900900 1  264             Rx   d 8 01 04 00 1A 17 40 00 00
 0.908583 1  111             Tx   d 8 00 4B 00 00 00 00 00 00
 0.909068 1  251             Rx   d 8 FF 9D 00 23 FB 21 C0 C8
 0.910944 1  252             Rx   d 8 FF 9B 00 27 FB 22 EA B5
 0.912929 1  253             Rx   d 8 00 65 00 11 04 DF 06 2A
 0.914915 1  254             Rx   d 8 00 71 00 25 04 DE 90 AB
 0.916986 1  241             Rx   d 8 AA 00 00 00 00 00 00 28
 0.918899 1  221             Rx   d 8 00 31 FF FE 00 00 00 00
 0.919130 1  311             Rx   d 8 00 03 3A C7 00 03 3A 03
 0.931252 1  251             Rx   d 8 FF 6F 00 22 FB 21 BE 2A
 0.931484 1  252             Rx   d 8 FF 72 00 25 FB 22 E8 25
 0.932951 1  253             Rx   d 8 00 8F 00 16 04 DF 08 B3
 0.934979 1  254             Rx   d 8 00 98 00 23 04 DE 93 5C
 0.937003 1  241             Rx   d 8 AA 00 00 00 00 00 00 29
 0.938884 1  221             Rx   d 8 00 40 00 01 00 00 00 00
 0.939146 1  311             Rx   d 8 00 03 3A C9 00 03 3A 04
 0.948954 1  251             Rx   d 8 FF 62 00 22 FB 21 BC CE
 0.950950 1  252             Rx   d 8 FF 5E 00 29 FB 22 E5 82
 0.952954 1  253             Rx   d 8 00 99 00 16 04 DF 09 FE
 0.954962 1  254             Rx   d 8 00 A7 00 22 04 DE 96 0A
 0.957093 1  241             Rx   d 8 AA 00 00 00 00 00 00 2A
 0.958896 1  221             Rx   d 8 00 46 00 00 00 00 00 00
 0.959129 1  311             Rx   d 8 00 03 3A CA 00 03 3A 06
 0.960359 1  111             Tx   d 8 00 4B 00 00 00 00 00 00
 0.967978 1  261             Rx   d 8 01 04 00 1A 17 40 00 00
 0.968971 1  251             Rx   d 8 FF 56 00 20 FB 21 BA 13
 0.970969 1  252             Rx   d 8 FF 5A 00 28 FB 22 E4 25
 0.972981 1  253             Rx   d 8 00 A4 00 19 04 DF 0C A0
 0.974978 1  254             Rx   d 8 00 AA 00 22 04 DE 97 6A
 0.977059 1  241             Rx   d 8 AA 00 00 00 00 00 00 2B
 0.978905 1  221             Rx   d 8 00 49 00 00 00 00 00 00
 0.979135 1  311             Rx   d 8 00 03 3A CB 00 03 3A 07
 0.979365 1  262             Rx   d 8 01 00 00 1B 18 40 00 00
 0.988981 1  251             Rx   d 8 FF 53 00 22 FB 21 B8 B8
 0.990003 1  263             Rx   d 8 01 00 00 1A 17 40 00 00
 0.990982 1  252             Rx   d 8 FF 55 00 28 FB 22 E1 6F
 0.993001 1  253             Rx   d 8 00 A8 00 18 04 DF 0F 53
 0.994993 1  254             Rx   d 8 00 AC 00 22 04 DE 9A 1B
 0.997010 1  241             Rx   d 8 AA 00 00 00 00 00 00 2C
 0.998948 1  221             Rx   d 8 00 4A 00 01 00 00 00 00
 0.999144 1  311             Rx   d 8 00 03 3A CD 00 03 3A 08
 1.001020 1  264             Rx   d 8 01 04 00 1A 17 40 00 00
 1.009082 1  251             Rx   d 8 FF 52 00 20 FB 21 B5 FA
 1.011020 1  252             Rx   d 8 FF 52 00 27 FB 22 DE B0
 1.012352 1  111             Tx   d 8 00 4B 00 00 00 00 00 00
 1.013026 1  253             Rx   d 8 00 AB 00 1B 04 DF 10 AE
 1.015005 1  254             Rx   d 8 00 AE 00 27 04 DE 9C CA
 1.017098 1  241             Rx   d 8 AA 00 00 00 00 00 00 2D
 1.018932 1  221             Rx   d 8 00 4A 00 00 00 00 00 00
 1.019147 1  311             Rx   d 8 00 03 3A CE 00 03 3A 0A
 1.031337 1  251             Rx   d 8 FF 53 00 22 FB 21 B3 4A
 1.031575 1  252             Rx   d 8 FF 52 00 29 FB 22 DD 58
 1.033066 1  253             Rx   d 8 00 AD 00 18 04 DF 13 64
 1.035063 1  254             Rx   d 8 00 AC 00 20 04 DE 9E 30
 1.037041 1  241             Rx   d 8 AA 00 00 00 00 00 00 2E
 1.038913 1  221             Rx   d 8 00 4A 00 00 00 00 00 00
 1.039135 1  311             Rx   d 8 00 03 3A D0 00 03 3A 0B
 1.049073 1  251             Rx   d 8 FF 53 00 20 FB 21 B1 F2
 1.051047 1  252             Rx   d 8 FF 53 00 25 FB 22 DA 9C
 1.053076 1  253             Rx   d 8 00 AA 00 19 04 DF 16 05
 1.055087 1  254             Rx   d 8 00 AD 00 25 04 DE A0 D7
 1.057153 1  241             Rx   d 8 AA 00 00 00 00 00 00 2F
 1.058937 1  221             Rx   d 8 00 4A 00 00 00 00 00 00
 1.059190 1  311             Rx   d 8 00 03 3A D1 00 03 3A 0D
 1.064325 1  111             Tx   d 8 00 4B 00 00 00 00 00 00
 1.068074 1  261             Rx   d 8 01 04 00 1A 17 40 00 00
 1.069104 1  251             Rx   d 8 FF 54 00 23 FB 21 AF 44
 1.071080 1  252             Rx   d 8 FF 52 00 25 FB 22 D7 DF
 1.073100 1  253             Rx   d 8 00 A9 00 1B 04 DF 17 57
 1.075095 1  254             Rx   d 8 00 AE 00 23 04 DE A3 9A
 1.077097 1  241             Rx   d 8 AA 00 00 00 00 00 00 30
 1.078904 1  221             Rx   d 8 00 4A 00 00 00 00 00 00
 1.079136 1  311             Rx   d 8 00 03 3A D3 00 03 3A 0E
 1.079689 1  262             Rx   d 8 01 00 00 1B 18 40 00 00
 1.087199 1  211             Rx   d 8 00 01 01 00 00 00 00 00
 1.089090 1  251             Rx   d 8 FF 55 00 20 FB 21 AC 92
 1.090099 1  263             Rx   d 8 01 00 00 1A 17 40 00 00
 1.091095 1  252             Rx   d 8 FF 52 00 25 FB 22 D6 86
 1.093103 1  253             Rx   d 8 00 A9 00 1B 04 DF 1A 0A
 1.095100 1  254             Rx   d 8 00 AD 00 23 04 DE A4 EA
 1.097199 1  241             Rx   d 8 AA 00 00 00 00 00 00 31
 1.098947 1  221             Rx   d 8 00 4A 00 01 00 00 00 00
 1.099188 1  311             Rx   d 8 00 03 3A D4 00 03 3A 10
 1.101109 1  264             Rx   d 8 01 04 00 1A 17 40 00 00
 1.107210 1  231             Rx   d 8 00 02 3B 02 54 00 00 00
 1.109105 1  251             Rx   d 8 FF 55 00 22 FB 21 AB 3B
 1.111099 1  252             Rx   d 8 FF 52 00 28 FB 22 D3 CF
 1.113130 1  253             Rx   d 8 00 A9 00 20 04 DF 1C 9F
 1.115126 1  254             Rx   d 8 00 AE 00 23 04 DE A7 AE
 1.116071 1  111             Tx   d 8 00 4B 00 00 00 00 00 00
 1.117134 1  241             Rx   d 8 AA 00 00 00 00 00 00 32
 1.118937 1  221             Rx   d 8 00 4A 00 00 00 00 00 00
 1.119148 1  311             Rx   d 8 00 03 3A D6 00 03 3A 11
 1.131483 1  251             Rx   d 8 FF 54 00 20 FB 21 A8 81
 1.131716 1  252             Rx   d 8 FF 53 00 25 FB 22 D1 1B
 1.133145 1  253             Rx   d 8 00 A7 00 1E 04 DF 1D F4
 1.135187 1  254             Rx   d 8 00 AD 00 20 04 DE AA 68
 1.137229 1  241             Rx   d 8 AA 00 00 00 00 00 00 33
 1.138920 1  221             Rx   d 8 00 4A 00 01 00 00 00 00
 1.139139 1  311             Rx   d 8 00 03 3A D7 00 03 3A 13
 1.149153 1  251             Rx   d 8 FF 53 00 20 FB 21 A5 CB
 1.151199 1  252             Rx   d 8 FF 53 00 27 FB 22 CF C0
 1.153172 1  253             Rx   d 8 00 A9 00 20 04 DF 20 A0
 1.155164 1  254             Rx   d 8 00 AE 00 23 04 DE AB C1
 1.157240 1  241             Rx   d 8 AA 00 00 00 00 00 00 34
 1.158948 1  221             Rx   d 8 00 4A 00 00 00 00 00 00
 1.159200 1  311             Rx   d 8 00 03 3A D9 00 03 3A 14
 1.167557 1  111             Tx   d 8 00 4B 00 00 00 00 00 00
 1.168180 1  261             Rx   d 8 01 04 00 1A 17 40 00 00
 1.169188 1  251             Rx   d 8 FF 53 00 1E FB 21 A4 6D
 1.171194 1  252             Rx   d 8 FF 54 00 27 FB 22 CD 11
 1.173207 1  253             Rx   d 8 00 AB 00 1E 04 DF 23 56
 1.175189 1  254             Rx   d 8 00 AD 00 1E 04 DE AE 7C
 1.177260 1  241             Rx   d 8 AA 00 00 00 00 00 00 35
 1.178945 1  221             Rx   d 8 00 4A 00 00 00 00 00 00
 1.179148 1  311             Rx   d 8 00 03 3A DA 00 03 3A 16
 1.179399 1  262             Rx   d 8 01 00 00 1B 18 40 00 00
 1.189229 1  251             Rx   d 8 FF 53 00 20 FB 21 A1 BC
 1.190195 1  263             Rx   d 8 01 00 00 1A 17 40 00 00
 1.191211 1  252             Rx   d 8 FF 54 00 25 FB 22 CA 5B
 1.193199 1  253             Rx   d 8 00 AC 00 20 04 DF 24 AC
 1.195218 1  254             Rx   d 8 00 AC 00 1E 04 DE B1 28
 1.197209 1  241             Rx   d 8 AA 00 00 00 00 00 00 36
 1.198940 1  221             Rx   d 8 00 4A 00 00 00 00 00 00
 1.199186 1  311             Rx   d 8 00 03 3A DC 00 03 3A 17
 1.201217 1  264             Rx   d 8 01 04 00 1A 17 40 00 00
 1.209231 1  251             Rx   d 8 FF 53 00 20 FB 21 9F 06
 1.211221 1  252             Rx   d 8 FF 54 00 20 FB 22 C9 02
 1.213223 1  253             Rx   d 8 00 AC 00 20 04 DF 27 64
 1.215226 1  254             Rx   d 8 00 AD 00 1E 04 DE B2 8D
 1.217331 1  241             Rx   d 8 AA 00 00 00 00 00 00 37
 1.218934 1  221             Rx   d 8 00 4A 00 00 00 00 00 00
 1.219210 1  311             Rx   d 8 00 03 3A DD 00 03 3A 19
 1.219270 1  111             Tx   d 8 00 4B 00 00 00 00 00 00
 1.231585 1  251             Rx   d 8 FF 54 00 20 FB 21 9C 54
 1.231821 1  252             Rx   d 8 FF 54 00 27 FB 22 C6 4F
 1.233228 1  253             Rx   d 8 00 AD 00 1E 04 DF 2A 1D
 1.235255 1  254             Rx   d 8 00 AC 00 1D 04 DE B5 3D
 1.237247 1  241             Rx   d 8 AA 00 00 00 00 00 00 38
 1.238944 1  221             Rx   d 8 00 4A 00 00 00 00 00 00
 1.239145 1  311             Rx   d 8 00 03 3A DF 00 03 3A 1A
 1.249272 1  251             Rx   d 8 FF 54 00 20 FB 21 9A FC
 1.251265 1  252             Rx   d 8 FF 54 00 27 FB 22 C3 A0
 1.253258 1  253             Rx   d 8 00 AE 00 20 04 DF 2B 77
 1.255276 1  254             Rx   d 8 00 AD 00 25 04 DE B7 E6
 1.257272 1  241             Rx   d 8 AA 00 00 00 00 00 00 39
 1.258980 1  221             Rx   d 8 00 4A 00 00 00 00 00 00
 1.259200 1  311             Rx   d 8 00 03 3A E0 00 03 3A 1C
 1.268309 1  261             Rx   d 8 01 04 00 1A 17 40 00 00
 1.269277 1  251             Rx   d 8 FF 57 00 28 FB 21 98 6A
 1.271346 1  252             Rx   d 8 FF 54 00 28 FB 22 C2 48
 1.271397 1  111             Tx   d 8 00 4B 00 00 00 00 00 00
 1.273273 1  253             Rx   d 8 00 AD 00 1E 04 DF 2E 2D
 1.275310 1  254             Rx   d 8 00 AB 00 1E 04 DE B9 46
 1.277328 1  241             Rx   d 8 AA 00 00 00 00 00 00 3A
 1.278974 1  221             Rx   d 8 00 4A 00 00 00 00 00 00
 1.279191 1  311             Rx   d 8 00 03 3A E2 00 03 3A 1D
 1.279772 1  262             Rx   d 8 01 00 00 1B 18 40 00 00
 1.287347 1  211             Rx   d 8 00 01 01 00 00 00 00 00
 1.289275 1  251             Rx   d 8 FF 5A 00 27 FB 21 97 1A
 1.290322 1  263             Rx   d 8 01 00 00 1A 17 40 00 00
 1.291333 1  252             Rx   d 8 FF 53 00 28 FB 22 BF 94
 1.293312 1  253             Rx   d 8 00 AC 00 20 04 DF 30 DB
 1.295318 1  254             Rx   d 8 00 AC 00 23 04 DE BB EF
 1.297316 1  241             Rx   d 8 AA 00 00 00 00 00 00 3B
 1.298959 1  221             Rx   d 8 00 49 00 00 00 00 00 00
 1.299182 1  311             Rx   d 8 00 03 3A E3 00 03 3A 1F
 1.301336 1  264             Rx   d 8 01 04 00 1A 17 40 00 00
 1.309349 1  251             Rx   d 8 FF 57 00 25 FB 21 94 5F
 1.311340 1  252             Rx   d 8 FF 55 00 27 FB 22 BC E2
 1.313339 1  253             Rx   d 8 00 AD 00 1E 04 DF 32 3F
 1.315342 1  254             Rx   d 8 00 AB 00 28 04 DE BE 95
 1.317391 1  361             Rx   d 8 2C 58 01 06 FF F6 00 E3
 1.317690 1  241             Rx   d 8 AA 00 00 00 00 00 00 3C
 1.318936 1  221             Rx   d 8 00 4A 00 00 00 00 00 00
 1.319182 1  311             Rx   d 8 00 03 3A E5 00 03 3A 20
 1.323121 1  111             Tx   d 8 00 4B 00 00 00 00 00 00
 1.331697 1  251             Rx   d 8 FF 5A 00 38 FB 21 91 FF
 1.331863 1  252             Rx   d 8 FF 54 00 28 FB 22 BB 8D
 1.333339 1  253             Rx   d 8 00 AA 00 23 04 DF 34 D7
 1.335340 1  254             Rx   d 8 00 9F 00 31 04 DE C0 F4
 1.337359 1  241             Rx   d 8 AA 00 00 00 00 00 00 3D
 1.338966 1  221             Rx   d 8 00 47 00 02 00 00 00 00
 1.339179 1  311             Rx   d 8 00 03 3A E6 00 03 3A 22
 1.349360 1  251             Rx   d 8 FF 64 00 41 FB 21 90 EF
 1.351366 1  252             Rx   d 8 FF 54 00 27 FB 22 B8 CF
 1.353347 1  253             Rx   d 8 00 AB 00 23 04 DF 37 8D
 1.355366 1  254             Rx   d 8 00 9C 00 3B 04 DE C2 25
 1.357461 1  241             Rx   d 8 AA 00 00 00 00 00 00 3E
 1.358980 1  221             Rx   d 8 00 45 FF FF 00 00 00 00
 1.359167 1  311             Rx   d 8 00 03 3A E7 00 03 3A 23
 1.368379 1  261             Rx   d 8 01 04 00 1A 17 40 00 00
 1.369368 1  251             Rx   d 8 FF 73 00 56 FB 21 8E CE
 1.371368 1  252             Rx   d 8 FF 56 00 2D FB 22 B6 3D
 1.373385 1  253             Rx   d 8 00 AA 00 28 04 DF 38 CE
 1.374691 1  111             Tx   d 8 00 4B 00 00 00 00 00 00
 1.375388 1  254             Rx   d 8 00 92 00 47 04 DE C4 57
 1.377469 1  241             Rx   d 8 AA 00 00 00 00 00 00 3F
 1.378971 1  221             Rx   d 8 00 43 00 00 00 00 00 00
 1.379202 1  311             Rx   d 8 00 03 3A E9 00 03 3A 24
 1.379447 1  262             Rx   d 8 01 00 00 1B 18 40 00 00
 1.389409 1  251             Rx   d 8 FF 6F 00 50 FB 21 8C 40
 1.390437 1  263             Rx   d 8 01 00 00 1A 17 40 00 00
 1.391398 1  252             Rx   d 8 FF 58 00 2D FB 22 B4 E7
 1.393414 1  253             Rx   d 8 00 A3 00 2E 04 DF 3B 50
 1.395398 1  254             Rx   d 8 00 96 00 51 04 DE C6 C9
 1.397409 1  241             Rx   d 8 AA 00 00 00 00 00 00 40
 1.398942 1  221             Rx   d 8 00 43 00 00 00 00 00 00
 1.399180 1  311             Rx   d 8 00 03 3A EA 00 03 3A 26
 1.401419 1  264             Rx   d 8 01 04 00 1A 17 40 00 00
 1.409435 1  251             Rx   d 8 FF 61 00 51 FB 21 8A DB
 1.411426 1  252             Rx   d 8 FF 58 00 2E FB 22 B2 42
 1.413435 1  253             Rx   d 8 00 A2 00 30 04 DF 3D EC
 1.415464 1  254             Rx   d 8 00 97 00 53 04 DE C7 FD
 1.417465 1  241             Rx   d 8 AA 00 00 00 00 00 00 41
 1.418952 1  221             Rx   d 8 00 45 00 05 00 00 00 00
 1.419164 1  311             Rx   d 8 00 03 3A EC 00 03 3A 27
 1.425945 1  111             Tx   d 8 00 4B 00 00 00 00 00 00
 1.431751 1  251             Rx   d 8 FF 55 00 51 FB 21 88 27
 1.431978 1  252             Rx   d 8 FF 55 00 2C FB 22 AF 89
 1.433442 1  253             Rx   d 8 00 A5 00 31 04 DF 3F 3F
 1.435443 1  254             Rx   d 8 00 A3 00 53 04 DE CA B0
 1.437471 1  241             Rx   d 8 AA 00 00 00 00 00 00 42
 1.438960 1  221             Rx   d 8 00 48 00 02 00 00 00 00
 1.439209 1  311             Rx   d 8 00 03 3A ED 00 03 3A 29
 1.449482 1  251             Rx   d 8 FF 53 00 4B FB 21 85 6A
 1.451464 1  252             Rx   d 8 FF 54 00 2C FB 22 AE 2C
 1.453462 1  253             Rx   d 8 00 AA 00 2D 04 DF 41 FA
 1.455464 1  254             Rx   d 8 00 AB 00 4C 04 DE CD 87
 1.457587 1  241             Rx   d 8 AA 00 00 00 00 00 00 43
 1.458943 1  221             Rx   d 8 00 4A 00 01 00 00 00 00
 1.459191 1  311             Rx   d 8 00 03 3A EE 00 03 3A 2A
 1.468492 1  261             Rx   d 8 01 04 00 1A 17 40 00 00
 1.469482 1  251             Rx   d 8 FF 51 00 47 FB 21 83 FE
 1.471490 1  252             Rx   d 8 FF 51 00 29 FB 22 AB 68
 1.473484 1  253             Rx   d 8 00 AD 00 2C 04 DF 44 B7
 1.475470 1  254             Rx   d 8 00 B1 00 4E 04 DE CE E9
 1.477354 1  111             Tx   d 8 00 4B 00 00 00 00 00 00
 1.477583 1  241             Rx   d 8 AA 00 00 00 00 00 00 44
 1.478965 1  221             Rx   d 8 00 4C 00 00 00 00 00 00
 1.479208 1  311             Rx   d 8 00 03 3A F0 00 03 3A 2C
 1.480047 1  262             Rx   d 8 01 00 00 1B 18 40 00 00
 1.487579 1  211             Rx   d 8 00 01 00 FF 00 00 00 00
 1.489503 1  251             Rx   d 8 FF 4C 00 44 FB 21 81 21
 1.490495 1  263             Rx   d 8 01 00 00 1A 17 40 00 00
 1.491492 1  252             Rx   d 8 FF 50 00 28 FB 22 A8 A4
 1.493495 1  253             Rx   d 8 00 B0 00 2B 04 DF 46 22
 1.495491 1  254             Rx   d 8 00 B5 00 41 04 DE D1 D1
 1.497522 1  241             Rx   d 8 AA 00 00 00 00 00 00 45
 1.498965 1  221             Rx   d 8 00 4D 00 00 00 00 00 00
 1.499188 1  311             Rx   d 8 00 03 3A F1 00 03 3A 2D
 1.501525 1  264             Rx   d 8 01 04 00 1A 17 40 00 00
 1.509563 1  251             Rx   d 8 FF 49 00 40 FB 21 7E 3F
 1.511526 1  252             Rx   d 8 FF 50 00 27 FB 22 A7 43
 1.513521 1  253             Rx   d 8 00 B1 00 27 04 DF 48 EA
 1.515521 1  254             Rx   d 8 00 B6 00 3C 04 DE D4 A9
 1.517609 1  241             Rx   d 8 AA 00 00 00 00 00 00 46
 1.518965 1  221             Rx   d 8 00 4D 00 00 00 00 00 00
 1.519208 1  311             Rx   d 8 00 03 3A F3 00 03 3A 2F
 1.528980 1  111             Tx   d 8 00 4B 00 00 00 00 00 00
 1.531849 1  251             Rx   d 8 FF 49 00 3B FB 21 7B 60
 1.532096 1  252             Rx   d 8 FF 50 00 25 FB 22 A4 85
 1.533544 1  253             Rx   d 8 00 B2 00 25 04 DF 4B AE
 1.535555 1  254             Rx   d 8 00 B8 00 3C 04 DE D6 1D
 1.537689 1  241             Rx   d 8 AA 00 00 00 00 00 00 47
 1.538975 1  221             Rx   d 8 00 4D 00 00 00 00 00 00
 1.539209 1  311             Rx   d 8 00 03 3A F5 00 03 3A 30
 1.549553 1  251             Rx   d 8 FF 49 00 38 FB 21 79 F9
 1.551600 1  252             Rx   d 8 FF 51 00 23 FB 22 A1 C9
 1.553601 1  253             Rx   d 8 00 B0 00 23 04 DF 4D 0F
 1.555598 1  254             Rx   d 8 00 B5 00 37 04 DE D8 EE
 1.557686 1  241             Rx   d 8 AA 00 00 00 00 00 00 48
 1.558952 1  221             Rx   d 8 00 4D 00 00 00 00 00 00
 1.559202 1  311             Rx   d 8 00 03 3A F6 00 03 3A 32
 1.568576 1  261             Rx   d 8 01 04 00 1A 17 40 00 00
 1.569569 1  251             Rx   d 8 FF 4B 00 3A FB 21 77 31
 1.571586 1  252             Rx   d 8 FF 51 00 25 FB 22 A0 6F
 1.573594 1  253             Rx   d 8 00 B0 00 27 04 DF 4F CB
 1.575608 1  254             Rx   d 8 00 B3 00 37 04 DE DB A9
 1.577689 1  241             Rx   d 8 AA 00 00 00 00 00 00 49
 1.578958 1  221             Rx   d 8 00 4C 00 00 00 00 00 00
 1.579210 1  311             Rx   d 8 00 03 3A F8 00 03 3A 33
 1.579582 1  262             Rx   d 8 01 00 00 1B 18 40 00 00
 1.581230 1  111             Tx   d 8 00 4B 00 00 00 00 00 00
 1.589617 1  251             Rx   d 8 FF 4E 00 36 FB 21 75 D1
 1.590606 1  263             Rx   d 8 01 00 00 1A 17 40 00 00
 1.591614 1  252             Rx   d 8 FF 53 00 25 FB 22 9D B9
 1.593626 1  253             Rx   d 8 00 AF 00 25 04 DF 52 82
 1.595608 1  254             Rx   d 8 00 B1 00 37 04 DE DD 14
 1.597719 1  241             Rx   d 8 AA 00 00 00 00 00 00 4A
 1.598970 1  221             Rx   d 8 00 4B 00 00 00 00 00 00
 1.599210 1  311             Rx   d 8 00 03 3A F9 00 03 3A 35
 1.601700 1  264             Rx   d 8 01 04 00 1A 17 40 00 00
 1.607726 1  231             Rx   d 8 00 02 3B 02 61 00 00 00
 1.609617 1  251             Rx   d 8 FF 51 00 37 FB 21 73 1F
 1.611624 1  252             Rx   d 8 FF 54 00 27 FB 22 9B 0C
 1.613709 1  253             Rx   d 8 00 AD 00 25 04 DF 53 D5
 1.615710 1  254             Rx   d 8 00 AE 00 37 04 DE DF BB
 1.617703 1  241             Rx   d 8 AA 00 00 00 00 00 00 4B
 1.618981 1  221             Rx   d 8 00 4A 00 00 00 00 00 00
 1.619204 1  311             Rx   d 8 00 03 3A FB 00 03 3A 36
 1.631902 1  251             Rx   d 8 FF 53 00 37 FB 21 70 6A
 1.632139 1  252             Rx   d 8 FF 54 00 25 FB 22 99 AD
 1.633703 1  253             Rx   d 8 00 AC 00 29 04 DF 56 87
 1.633823 1  111             Tx   d 8 00 4B 00 00 00 00 00 00
 1.635698 1  254             Rx   d 8 00 AD 00 3B 04 DE E2 6E
 1.637733 1  241             Rx   d 8 AA 00 00 00 00 00 00 4C
 1.638968 1  221             Rx   d 8 00 4A 00 00 00 00 00 00
 1.639210 1  311             Rx   d 8 00 03 3A FC 00 03 3A 38
 1.649710 1  251             Rx   d 8 FF 54 00 37 FB 21 6F 14
 1.651705 1  252             Rx   d 8 FF 55 00 29 FB 22 97 05
 1.653700 1  253             Rx   d 8 00 AA 00 28 04 DF 59 31
 1.655698 1  254             Rx   d 8 00 AA 00 3A 04 DE E3 BC
 1.657756 1  241             Rx   d 8 AA 00 00 00 00 00 00 4D
 1.658980 1  221             Rx   d 8 00 49 00 00 00 00 00 00
 1.659222 1  311             Rx   d 8 00 03 3A FE 00 03 3A 39
 1.668690 1  261             Rx   d 8 01 04 00 1A 17 40 00 00
 1.669707 1  251             Rx   d 8 FF 56 00 3A FB 21 6C 6D
 1.671721 1  252             Rx   d 8 FF 55 00 28 FB 22 94 56
 1.673703 1  253             Rx   d 8 00 AA 00 2D 04 DF 5A 7D
 1.675707 1  254             Rx   d 8 00 AA 00 40 04 DE E6 61
 1.677747 1  241             Rx   d 8 AA 00 00 00 00 00 00 4E
 1.678986 1  221             Rx   d 8 00 49 00 00 00 00 00 00
 1.679221 1  311             Rx   d 8 00 03 3A FF 00 03 3A 3B
 1.680192 1  262             Rx   d 8 01 00 00 1B 17 40 00 00
 1.686133 1  111             Tx   d 8 00 4B 00 00 00 00 00 00
 1.687728 1  211             Rx   d 8 00 01 00 FF 00 00 00 00
 1.689719 1  251             Rx   d 8 FF 57 00 3C FB 21 69 CB
 1.690722 1  263             Rx   d 8 01 00 00 1A 17 40 00 00
 1.691720 1  252             Rx   d 8 FF 55 00 28 FB 22 92 FE
 1.693730 1  253             Rx   d 8 00 A8 00 2D 04 DF 5D 1D
 1.695743 1  254             Rx   d 8 00 A7 00 3D 04 DE E9 06
 1.697832 1  241             Rx   d 8 AA 00 00 00 00 00 00 4F
 1.698993 1  221             Rx   d 8 00 48 00 01 00 00 00 00
 1.699231 1  311             Rx   d 8 00 03 3B 01 00 03 3A 3C
 1.701775 1  264             Rx   d 8 01 04 00 1A 17 40 00 00
 1.709738 1  251             Rx   d 8 FF 58 00 3C FB 21 68 78
 1.711753 1  252             Rx   d 8 FF 54 00 27 FB 22 90 45
 1.713765 1  253             Rx   d 8 00 A7 00 30 04 DF 5F B9
 1.715746 1  254             Rx   d 8 00 A8 00 45 04 DE EA 4B
 1.717797 1  241             Rx   d 8 AA 00 00 00 00 00 00 50
 1.718999 1  221             Rx   d 8 00 48 00 01 00 00 00 00
 1.719237 1  311             Rx   d 8 00 03 3B 02 00 03 3A 3E
 1.732021 1  251             Rx   d 8 FF 58 00 3F FB 21 65 D7
 1.732248 1  252             Rx   d 8 FF 54 00 28 FB 22 8D 93
 1.733757 1  253             Rx   d 8 00 A7 00 31 04 DF 61 0E
 1.735768 1  254             Rx   d 8 00 A7 00 42 04 DE EC F3
 1.737859 1  241             Rx   d 8 AA 00 00 00 00 00 00 51
 1.738986 1  221             Rx   d 8 00 48 00 01 00 00 00 00
 1.739230 1  311             Rx   d 8 00 03 3B 03 00 03 3A 3F
 1.740101 1  111             Tx   d 8 00 4B 00 00 00 00 00 00
 1.749778 1  251             Rx   d 8 FF 57 00 41 FB 21 63 34
 1.751786 1  252             Rx   d 8 FF 53 00 27 FB 22 8C 36
 1.753776 1  253             Rx   d 8 00 A8 00 32 04 DF 63 B1
 1.755780 1  254             Rx   d 8 00 A7 00 42 04 DE EF 90
 1.757912 1  241             Rx   d 8 AA 00 00 00 00 00 00 52
 1.758997 1  221             Rx   d 8 00 49 00 01 00 00 00 00
 1.759229 1  311             Rx   d 8 00 03 3B 05 00 03 3A 41
 1.768842 1  261             Rx   d 8 01 04 00 1A 16 40 00 00
 1.769816 1  251             Rx   d 8 FF 58 00 41 FB 21 61 DF
 1.771827 1  252             Rx   d 8 FF 52 00 28 FB 22 89 79
 1.773803 1  253             Rx   d 8 00 AA 00 32 04 DF 66 64
 1.775833 1  254             Rx   d 8 00 A9 00 45 04 DE F0 F2
 1.777818 1  241             Rx   d 8 AA 00 00 00 00 00 00 53
 1.778986 1  221             Rx   d 8 00 49 00 01 00 00 00 00
 1.779226 1  311             Rx   d 8 00 03 3B 06 00 03 3A 42
 1.779799 1  262             Rx   d 8 01 00 00 1B 18 40 00 00
 1.789847 1  251             Rx   d 8 FF 56 00 44 FB 21 5F 33
 1.790840 1  263             Rx   d 8 01 00 00 1A 17 40 00 00
 1.791828 1  252             Rx   d 8 FF 52 00 25 FB 22 86 C5
 1.792980 1  111             Tx   d 8 00 4B 00 00 00 00 00 00
 1.793820 1  253             Rx   d 8 00 AA 00 32 04 DF 67 B9
 1.795858 1  254             Rx   d 8 00 AA 00 42 04 DE F3 9B
 1.797897 1  241             Rx   d 8 AA 00 00 00 00 00 00 54
 1.798993 1  221             Rx   d 8 00 49 00 00 00 00 00 00
 1.799231 1  311             Rx   d 8 00 03 3B 08 00 03 3A 44
 1.801852 1  264             Rx   d 8 01 04 00 1A 17 40 00 00
 1.809856 1  251             Rx   d 8 FF 55 00 41 FB 21 5C 79
 1.811858 1  252             Rx   d 8 FF 53 00 27 FB 22 85 69
 1.813840 1  253             Rx   d 8 00 AC 00 32 04 DF 6A 6C
 1.815846 1  254             Rx   d 8 00 AE 00 46 04 DE F6 54
 1.817842 1  241             Rx   d 8 AA 00 00 00 00 00 00 55
 1.818068 1  361             Rx   d 8 2C 58 01 05 FF EF 00 E3
 1.818992 1  221             Rx   d 8 00 4A 00 00 00 00 00 00
 1.819228 1  311             Rx   d 8 00 03 3B 09 00 03 3A 45
 1.832168 1  251             Rx   d 8 FF 52 00 41 FB 21 59 BA
 1.832384 1  252             Rx   d 8 FF 53 00 23 FB 22 82 AC
 1.833848 1  253             Rx   d 8 00 AD 00 31 04 DF 6D 2F
 1.835858 1  254             Rx   d 8 00 AD 00 41 04 DE F7 BB
 1.837864 1  241             Rx   d 8 AA 00 00 00 00 00 00 56
 1.839003 1  221             Rx   d 8 00 4A 00 00 00 00 00 00
 1.839235 1  311             Rx   d 8 00 03 3B 0B 00 03 3A 47
 1.844686 1  111             Tx   d 8 00 4B 00 00 00 00 00 00
 1.849859 1  251             Rx   d 8 FF 51 00 3C FB 21 58 51
 1.851885 1  252             Rx   d 8 FF 52 00 25 FB 22 7F F6
 1.853870 1  253             Rx   d 8 00 AE 00 32 04 DF 6E 8B
 1.855883 1  254             Rx   d 8 00 B1 00 45 04 DE FA 7A
 1.857999 1  241             Rx   d 8 AA 00 00 00 00 00 00 57
 1.858991 1  221             Rx   d 8 00 4B 00 00 00 00 00 00
 1.859235 1  311             Rx   d 8 00 03 3B 0C 00 03 3A 48
 1.868899 1  261             Rx   d 8 01 04 00 1A 17 40 00 00
 1.869906 1  251             Rx   d 8 FF 4F 00 3D FB 21 55 8E
 1.871974 1  252             Rx   d 8 FF 53 00 27 FB 22 7E 9A
 1.873919 1  253             Rx   d 8 00 AF 00 2D 04 DF 71 4D
 1.875929 1  254             Rx   d 8 00 B2 00 40 04 DE FD 4E
 1.877991 1  241             Rx   d 8 AA 00 00 00 00 00 00 58
 1.879003 1  221             Rx   d 8 00 4B 00 00 00 00 00 00
 1.879248 1  311             Rx   d 8 00 03 3B 0E 00 03 3A 4A
 1.880475 1  262             Rx   d 8 01 00 00 1B 17 40 00 00
 1.887966 1  211             Rx   d 8 00 01 00 FF 00 00 00 00
 1.889907 1  251             Rx   d 8 FF 4F 00 3C FB 21 54 26
 1.890934 1  263             Rx   d 8 01 00 00 1A 17 40 00 00
 1.891980 1  252             Rx   d 8 FF 53 00 25 FB 22 7B E4
 1.893959 1  253             Rx   d 8 00 AF 00 2C 04 DF 74 09
 1.895965 1  254             Rx   d 8 00 B1 00 40 04 DE FE A2
 1.898012 1  241             Rx   d 8 AA 00 00 00 00 00 00 59
 1.899062 1  221             Rx   d 8 00 4C 00 00 00 00 00 00
 1.899100 1  111             Tx   d 8 00 4B 00 00 00 00 00 00
 1.899230 1  311             Rx   d 8 00 03 3B 0F 00 03 3A 4B
 1.901961 1  264             Rx   d 8 01 04 00 1A 17 40 00 00
 1.909995 1  251             Rx   d 8 FF 4E 00 37 FB 21 51 60
 1.911976 1  252             Rx   d 8 FF 52 00 23 FB 22 79 2C
 1.914010 1  253             Rx   d 8 00 AF 00 2B 04 DF 75 6A
 1.915992 1  254             Rx   d 8 00 B2 00 3C 04 DF 01 75
 1.917998 1  241             Rx   d 8 AA 00 00 00 00 00 00 5A
 1.919021 1  221             Rx   d 8 00 4C 00 00 00 00 00 00
 1.919253 1  311             Rx   d 8 00 03 3B 11 00 03 3A 4D
 1.932254 1  251             Rx   d 8 FF 50 00 36 FB 21 4E A2
 1.932487 1  252             Rx   d 8 FF 53 00 25 FB 22 77 D5
 1.933979 1  253             Rx   d 8 00 AF 00 29 04 DF 78 26
 1.935969 1  254             Rx   d 8 00 B0 00 37 04 DF 04 39
 1.937997 1  241             Rx   d 8 AA 00 00 00 00 00 00 5B
 1.939024 1  221             Rx   d 8 00 4B 00 00 00 00 00 00
 1.939240 1  311             Rx   d 8 00 03 3B 12 00 03 3A 4E
 1.950017 1  251             Rx   d 8 FF 51 00 36 FB 21 4D 43
 1.951994 1  252             Rx   d 8 FF 54 00 25 FB 22 75 21
 1.952462 1  111             Tx   d 8 00 4B 00 00 00 00 00 00
 1.954012 1  253             Rx   d 8 00 AE 00 2D 04 DF 7A D5
 1.956006 1  254             Rx   d 8 00 B1 00 3B 04 DF 05 8C
 1.958106 1  241             Rx   d 8 AA 00 00 00 00 00 00 5C
 1.959034 1  221             Rx   d 8 00 4B 00 00 00 00 00 00
 1.959263 1  311             Rx   d 8 00 03 3B 14 00 03 3A 50
 1.968999 1  261             Rx   d 8 01 04 00 1A 17 40 00 00
 1.969978 1  251             Rx   d 8 FF 51 00 36 FB 21 4A 89
 1.972001 1  252             Rx   d 8 FF 54 00 23 FB 22 72 6A
 1.974014 1  253             Rx   d 8 00 AD 00 2B 04 DF 7C 33
 1.976001 1  254             Rx   d 8 00 AD 00 38 04 DF 08 46
 1.978123 1  241             Rx   d 8 AA 00 00 00 00 00 00 5D
 1.979034 1  221             Rx   d 8 00 4A 00 00 00 00 00 00
 1.979263 1  311             Rx   d 8 00 03 3B 15 00 03 3A 51
 1.979985 1  262             Rx   d 8 01 00 00 1B 18 40 00 00
 1.990010 1  251             Rx   d 8 FF 53 00 37 FB 21 47 DD
 1.991018 1  263             Rx   d 8 01 00 00 1A 17 40 00 00
 1.991990 1  252             Rx   d 8 FF 54 00 25 FB 22 71 16
 1.994008 1  253             Rx   d 8 00 AB 00 2D 04 DF 7E D6
 1.996026 1  254             Rx   d 8 00 AA 00 3B 04 DF 0A E5
 1.998093 1  241             Rx   d 8 AA 00 00 00 00 00 00 5E
 1.999048 1  221             Rx   d 8 00 4A 00 01 00 00 00 00
 1.999270 1  311             Rx   d 8 00 03 3B 17 00 03 3A 53
 2.002032 1  264             Rx   d 8 01 04 00 1A 17 40 00 00
 2.005779 1  111             Tx   d 8 00 4B 00 00 00 00 00 00
 2.010052 1  251             Rx   d 8 FF 54 00 38 FB 21 46 8A
 2.012029 1  252             Rx   d 8 FF 55 00 25 FB 22 6E 66
 2.014050 1  253             Rx   d 8 00 AA 00 32 04 DF 81 7C
 2.016067 1  254             Rx   d 8 00 AA 00 3C 04 DF 0C 42
 2.018071 1  241             Rx   d 8 AA 00 00 00 00 00 00 5F
 2.019033 1  221             Rx   d 8 00 49 00 00 00 00 00 00
 2.019245 1  311             Rx   d 8 00 03 3B 18 00 03 3A 54
 2.032373 1  251             Rx   d 8 FF 56 00 3C FB 21 43 E7
 2.032603 1  252             Rx   d 8 FF 55 00 27 FB 22 6B B8
 2.034052 1  253             Rx   d 8 00 A9 00 33 04 DF 82 CC
 2.036071 1  254             Rx   d 8 00 A8 00 3F 04 DF 0E DA
 2.038133 1  241             Rx   d 8 AA 00 00 00 00 00 00 60
 2.039006 1  221             Rx   d 8 00 49 00 00 00 00 00 00
 2.039241 1  311             Rx   d 8 00 03 3B 1A 00 03 3A 56
 2.050091 1  251             Rx   d 8 FF 58 00 3D FB 21 41 42
 2.052086 1  252             Rx   d 8 FF 54 00 28 FB 22 6A 5B
 2.054117 1  253             Rx   d 8 00 A9 00 33 04 DF 85 78
 2.056112 1  254             Rx   d 8 00 A9 00 46 04 DF 11 7C
 2.058097 1  241             Rx   d 8 AA 00 00 00 00 00 00 61
 2.059022 1  221             Rx   d 8 00 49 00 00 00 00 00 00
 2.059215 1  111             Tx   d 8 00 4B 00 00 00 00 00 00
 2.059273 1  311             Rx   d 8 00 03 3B 1B 00 03 3A 57
 2.069117 1  261             Rx   d 8 01 04 00 1A 17 40 00 00
 2.070106 1  251             Rx   d 8 FF 58 00 44 FB 21 3F F8
 2.072107 1  252             Rx   d 8 FF 54 00 29 FB 22 67 AD
 2.074097 1  253             Rx   d 8 00 A9 00 33 04 DF 88 23
 2.076097 1  254             Rx   d 8 00 A7 00 41 04 DF 12 CF
 2.078199 1  241             Rx   d 8 AA 00 00 00 00 00 00 62
 2.079036 1  221             Rx   d 8 00 49 00 00 00 00 00 00
 2.079272 1  311             Rx   d 8 00 03 3B 1D 00 03 3A 59
 2.080574 1  262             Rx   d 8 01 00 00 1B 17 40 00 00
 2.088118 1  211             Rx   d 8 00 01 00 FF 00 00 00 00
 2.090099 1  251             Rx   d 8 FF 58 00 41 FB 21 3D 4E
 2.091113 1  263             Rx   d 8 01 00 00 1A 17 40 00 00
 2.092104 1  252             Rx   d 8 FF 54 00 25 FB 22 64 F3
 2.094121 1  253             Rx   d 8 00 AA 00 35 04 DF 89 77
 2.096112 1  254             Rx   d 8 00 AA 00 46 04 DF 15 74
 2.098207 1  241             Rx   d 8 AA 00 00 00 00 00 00 63
 2.099031 1  221             Rx   d 8 00 49 00 00 00 00 00 00
 2.099254 1  311             Rx   d 8 00 03 3B 1E 00 03 3A 5A
 2.102118 1  264             Rx   d 8 01 04 00 1A 17 40 00 00
 2.108203 1  231             Rx   d 8 00 02 3B 02 4D 00 00 00
 2.110132 1  251             Rx   d 8 FF 57 00 41 FB 21 3A A7
 2.111615 1  111             Tx   d 8 00 4B 00 00 00 00 00 00
 2.112127 1  252             Rx   d 8 FF 53 00 25 FB 22 63 97
 2.114140 1  253             Rx   d 8 00 AB 00 33 04 DF 8C 2D
 2.116138 1  254             Rx   d 8 00 AC 00 41 04 DF 18 39
 2.118205 1  241             Rx   d 8 AA 00 00 00 00 00 00 64
 2.119034 1  221             Rx   d 8 00 4A 00 00 00 00 00 00
 2.119261 1  311             Rx   d 8 00 03 3B 20 00 03 3A 5C
 2.132458 1  251             Rx   d 8 FF 55 00 42 FB 21 37 F7
 2.132694 1  252             Rx   d 8 FF 52 00 25 FB 22 60 DD
 2.134208 1  253             Rx   d 8 00 AC 00 33 04 DF 8E DB
 2.136161 1  254             Rx   d 8 00 AD 00 45 04 DF 19 86
 2.138176 1  241             Rx   d 8 AA 00 00 00 00 00 00 65
 2.139044 1  221             Rx   d 8 00 4A 00 00 00 00 00 00
 2.139263 1  311             Rx   d 8 00 03 3B 21 00 03 3A 5D
 2.150176 1  251             Rx   d 8 FF 55 00 42 FB 21 36 9D
 2.152208 1  252             Rx   d 8 FF 52 00 25 FB 22 5E 28
 2.154193 1  253             Rx   d 8 00 AC 00 33 04 DF 90 3A
 2.156203 1  254             Rx   d 8 00 AF 00 41 04 DF 1C 4F
 2.158316 1  241             Rx   d 8 AA 00 00 00 00 00 00 66
 2.159021 1  221             Rx   d 8 00 4A 00 00 00 00 00 00
 2.159272 1  311             Rx   d 8 00 03 3B 23 00 03 3A 5F
 2.164127 1  111             Tx   d 8 00 4B 00 00 00 00 00 00
 2.169220 1  261             Rx   d 8 01 04 00 1A 16 40 00 00
 2.170234 1  251             Rx   d 8 FF 54 00 41 FB 21 33 E7
 2.172220 1  252             Rx   d 8 FF 53 00 25 FB 22 5C CD
 2.174393 1  253             Rx   d 8 00 AB 00 35 04 DF 92 E4
 2.176226 1  254             Rx   d 8 00 AD 00 3F 04 DF 1F 08
 2.178304 1  241             Rx   d 8 AA 00 00 00 00 00 00 67
 2.179060 1  221             Rx   d 8 00 4A 00 00 00 00 00 00
 2.179279 1  311             Rx   d 8 00 03 3B 24 00 03 3A 60
 2.180206 1  262             Rx   d 8 01 00 00 1B 18 40 00 00
 2.190212 1  251             Rx   d 8 FF 53 00 42 FB 21 32 8B
 2.191211 1  263             Rx   d 8 01 00 00 1A 17 40 00 00
 2.192211 1  252             Rx   d 8 FF 53 00 25 FB 22 5A 1A
 2.194233 1  253             Rx   d 8 00 AC 00 37 04 DF 95 95
 2.196216 1  254             Rx   d 8 00 AF 00 41 04 DF 20 68
 2.198274 1  241             Rx   d 8 AA 00 00 00 00 00 00 68
 2.199083 1  221             Rx   d 8 00 4A 00 00 00 00 00 00
 2.199328 1  311             Rx   d 8 00 03 3B 26 00 03 3A 62
 2.202237 1  264             Rx   d 8 01 04 00 1A 17 40 00 00
 2.210231 1  251             Rx   d 8 FF 53 00 42 FB 21 2F D4
 2.212246 1  252             Rx   d 8 FF 54 00 23 FB 22 57 67
 2.214233 1  253             Rx   d 8 00 AB 00 35 04 DF 96 EE
 2.216251 1  254             Rx   d 8 00 AD 00 3F 04 DF 23 1E
 2.217493 1  111             Tx   d 8 00 4B 00 00 00 00 00 00
 2.218333 1  241             Rx   d 8 AA 00 00 00 00 00 00 69
 2.219068 1  221             Rx   d 8 00 4A 00 00 00 00 00 00
 2.219274 1  311             Rx   d 8 00 03 3B 27 00 03 3A 63
 2.232578 1  251             Rx   d 8 FF 53 00 44 FB 21 2D 20
 2.232764 1  252             Rx   d 8 FF 54 00 25 FB 22 56 11
 2.234254 1  253             Rx   d 8 00 AC 00 37 04 DF 99 9E
 2.236255 1  254             Rx   d 8 00 AD 00 41 04 DF 25 C7
 2.238317 1  241             Rx   d 8 AA 00 00 00 00 00 00 6A
 2.239053 1  221             Rx   d 8 00 4A 00 00 00 00 00 00
 2.239273 1  311             Rx   d 8 00 03 3B 29 00 03 3A 65
 2.250275 1  251             Rx   d 8 FF 54 00 41 FB 21 2B C6
 2.252275 1  252             Rx   d 8 FF 54 00 20 FB 22 53 59
 2.254271 1  253             Rx   d 8 00 AC 00 35 04 DF 9C 57
 2.256279 1  254             Rx   d 8 00 AC 00 3D 04 DF 27 31
 2.258373 1  241             Rx   d 8 AA 00 00 00 00 00 00 6B
 2.259050 1  221             Rx   d 8 00 4A 00 00 00 00 00 00
 2.259271 1  311             Rx   d 8 00 03 3B 2A 00 03 3A 66
 2.269294 1  261             Rx   d 8 01 04 00 1A 17 40 00 00
 2.269571 1  111             Tx   d 8 00 4B 00 00 00 00 00 00
 2.270273 1  251             Rx   d 8 FF 53 00 42 FB 21 29 12
 2.272331 1  252             Rx   d 8 FF 54 00 27 FB 22 50 AD
 2.274314 1  253             Rx   d 8 00 AD 00 36 04 DF 9D B0
 2.276318 1  254             Rx   d 8 00 AC 00 3F 04 DF 29 DD
 2.278326 1  241             Rx   d 8 AA 00 00 00 00 00 00 6C
 2.279085 1  221             Rx   d 8 00 4A 00 00 00 00 00 00
 2.279334 1  311             Rx   d 8 00 03 3B 2C 00 03 3A 68
 2.280741 1  262             Rx   d 8 01 00 00 1B 18 40 00 00
 2.288362 1  211             Rx   d 8 00 01 00 FF 00 00 00 00
 2.290308 1  251             Rx   d 8 FF 54 00 41 FB 21 26 5C
 2.291325 1  263             Rx   d 8 01 00 00 1A 17 40 00 00
 2.292344 1  252             Rx   d 8 FF 54 00 28 FB 22 4F 50
 2.294340 1  253             Rx   d 8 00 AD 00 36 04 DF A0 6A
 2.296332 1  254             Rx   d 8 00 AF 00 40 04 DF 2C 9D
 2.298386 1  241             Rx   d 8 AA 00 00 00 00 00 00 6D
 2.299078 1  221             Rx   d 8 00 4A 00 00 00 00 00 00
 2.299321 1  311             Rx   d 8 00 03 3B 2D 00 03 3A 69
 2.302359 1  264             Rx   d 8 01 04 00 1A 17 40 00 00
 2.310331 1  251             Rx   d 8 FF 53 00 41 FB 21 25 02
 2.312336 1  252             Rx   d 8 FF 55 00 27 FB 22 4C A4
 2.314332 1  253             Rx   d 8 00 AD 00 32 04 DF A3 22
 2.316338 1  254             Rx   d 8 00 AD 00 3C 04 DF 2D F7
 2.318422 1  361             Rx   d 8 2C 58 01 05 FF F0 00 E3
 2.318685 1  241             Rx   d 8 AA 00 00 00 00 00 00 6E
 2.319045 1  221             Rx   d 8 00 4A 00 00 00 00 00 00
 2.319290 1  311             Rx   d 8 00 03 3B 2F 00 03 3A 6B
 2.321705 1  111             Tx   d 8 00 4B 00 00 00 00 00 00
 2.332696 1  251             Rx   d 8 FF 53 00 3F FB 21 22 46
 2.332941 1  252             Rx   d 8 FF 54 00 27 FB 22 49 F1
 2.334374 1  253             Rx   d 8 00 AE 00 35 04 DF A4 7D
 2.336372 1  254             Rx   d 8 00 AF 00 3F 04 DF 30 B2
 2.338437 1  241             Rx   d 8 AA 00 00 00 00 00 00 6F
 2.339092 1  221             Rx   d 8 00 4A 00 00 00 00 00 00
 2.339303 1  311             Rx   d 8 00 03 3B 30 00 03 3A 6C
 2.350367 1  251             Rx   d 8 FF 53 00 3F FB 21 1F 91
 2.352397 1  252             Rx   d 8 FF 54 00 27 FB 22 48 9B
 2.354389 1  253             Rx   d 8 00 AD 00 33 04 DF A7 33
 2.356390 1  254             Rx   d 8 00 AD 00 3C 04 DF 33 70
 2.358488 1  241             Rx   d 8 AA 00 00 00 00 00 00 70
 2.359055 1  221             Rx   d 8 00 4A 00 00 00 00 00 00
 2.359307 1  311             Rx   d 8 00 03 3B 32 00 03 3A 6D
 2.369425 1  261             Rx   d 8 01 04 00 1A 16 40 00 00
 2.370388 1  251             Rx   d 8 FF 53 00 3F FB 21 1E 35
 2.372381 1  252             Rx   d 8 FF 54 00 27 FB 22 45 E8
 2.373763 1  111             Tx   d 8 00 4B 00 00 00 00 00 00
 2.374394 1  253             Rx   d 8 00 AC 00 37 04 DF A9 D8
 2.376456 1  254             Rx   d 8 00 AE 00 41 04 DF 34 BB
 2.378482 1  241             Rx   d 8 AA 00 00 00 00 00 00 71
 2.379061 1  221             Rx   d 8 00 4A 00 00 00 00 00 00
 2.379274 1  311             Rx   d 8 00 03 3B 33 00 03 3A 6F
 2.380400 1  262             Rx   d 8 01 00 00 1B 18 40 00 00
 2.390411 1  251             Rx   d 8 FF 54 00 40 FB 21 1B 88
 2.391447 1  263             Rx   d 8 01 00 00 1A 17 40 00 00
 2.392431 1  252             Rx   d 8 FF 54 00 28 FB 22 43 30
 2.394444 1  253             Rx   d 8 00 AB 00 37 04 DF AB 34
 2.396448 1  254             Rx   d 8 00 AC 00 3D 04 DF 37 74
 2.398497 1  241             Rx   d 8 AA 00 00 00 00 00 00 72
 2.399091 1  221             Rx   d 8 00 4A 00 00 00 00 00 00
 2.399312 1  311             Rx   d 8 00 03 3B 35 00 03 3A 70
 2.402494 1  264             Rx   d 8 01 04 00 1A 17 40 00 00
 2.410428 1  251             Rx   d 8 FF 54 00 42 FB 21 18 D9
 2.412473 1  252             Rx   d 8 FF 53 00 27 FB 22 41 D3
 2.414475 1  253             Rx   d 8 00 AB 00 38 04 DF AD DD
 2.416469 1  254             Rx   d 8 00 AA 00 3C 04 DF 3A 18
 2.418474 1  241             Rx   d 8 AA 00 00 00 00 00 00 73
 2.419059 1  221             Rx   d 8 00 4A 00 01 00 00 00 00
 2.419298 1  311             Rx   d 8 00 03 3B 36 00 03 3A 72
 2.426346 1  111             Tx   d 8 00 4B 00 00 00 00 00 00
 2.432769 1  251             Rx   d 8 FF 55 00 41 FB 21 16 24
 2.432990 1  252             Rx   d 8 FF 53 00 28 FB 22 3F 1F
 2.434446 1  253             Rx   d 8 00 AB 00 38 04 DF B0 8D
 2.436466 1  254             Rx   d 8 00 AB 00 41 04 DF 3B 75
 2.438523 1  241             Rx   d 8 AA 00 00 00 00 00 00 74
 2.439102 1  221             Rx   d 8 00 4A 00 00 00 00 00 00
 2.439328 1  311             Rx   d 8 00 03 3B 38 00 03 3A 73
 2.450467 1  251             Rx   d 8 FF 55 00 44 FB 21 14 D5
 2.452462 1  252             Rx   d 8 FF 52 00 23 FB 22 3C 60
 2.454505 1  253             Rx   d 8 00 AB 00 3A 04 DF B1 E0
 2.456509 1  254             Rx   d 8 00 AA 00 3F 04 DF 3E 1F
 2.458607 1  241             Rx   d 8 AA 00 00 00 00 00 00 75
 2.459103 1  221             Rx   d 8 00 4A 00 01 00 00 00 00
 2.459331 1  311             Rx   d 8 00 03 3B 39 00 03 3A 75
 2.469505 1  261             Rx   d 8 01 04 00 1A 17 40 00 00
 2.470492 1  251             Rx   d 8 FF 55 00 45 FB 21 12 1D
 2.472523 1  252             Rx   d 8 FF 52 00 23 FB 22 3B 03
 2.474505 1  253             Rx   d 8 00 AC 00 3B 04 DF B4 97
 2.476513 1  254             Rx   d 8 00 AC 00 41 04 DF 40 CA
 2.478523 1  241             Rx   d 8 AA 00 00 00 00 00 00 76
 2.479108 1  221             Rx   d 8 00 4A 00 00 00 00 00 00
 2.479364 1  311             Rx   d 8 00 03 3B 3B 00 03 3A 76
 2.480233 1  111             Tx   d 8 00 4B 00 00 00 00 00 00
 2.480993 1  262             Rx   d 8 01 00 00 1B 17 40 00 00
 2.488534 1  211             Rx   d 8 00 01 01 00 00 00 00 00
 2.490512 1  251             Rx   d 8 FF 54 00 44 FB 21 10 C7
 2.491507 1  263             Rx   d 8 01 00 00 1A 17 40 00 00
 2.492513 1  252             Rx   d 8 FF 52 00 23 FB 22 38 49
 2.494531 1  253             Rx   d 8 00 AC 00 38 04 DF B7 4F
 2.496539 1  254             Rx   d 8 00 AC 00 3D 04 DF 42 39
 2.498538 1  241             Rx   d 8 AA 00 00 00 00 00 00 77
 2.499100 1  221             Rx   d 8 00 4A 00 00 00 00 00 00
 2.499343 1  311             Rx   d 8 00 03 3B 3C 00 03 3A 78
 2.502528 1  264             Rx   d 8 01 04 00 1A 17 40 00 00
 2.510529 1  251             Rx   d 8 FF 53 00 42 FB 21 0E 0C
 2.512562 1  252             Rx   d 8 FF 53 00 25 FB 22 35 96
 2.514555 1  253             Rx   d 8 00 AD 00 3A 04 DF B8 A4
 2.516543 1  254             Rx   d 8 00 AE 00 41 04 DF 44 E8
 2.518612 1  241             Rx   d 8 AA 00 00 00 00 00 00 78
 2.519100 1  221             Rx   d 8 00 4A 00 00 00 00 00 00
 2.519322 1  311             Rx   d 8 00 03 3B 3D 00 03 3A 79
 2.532862 1  251             Rx   d 8 FF 52 00 41 FB 21 0B 52
 2.533115 1  252             Rx   d 8 FF 53 00 23 FB 22 34 35
 2.534105 1  111             Tx   d 8 00 4B 00 00 00 00 00 00
 2.534606 1  253             Rx   d 8 00 AD 00 37 04 DF BB 60
 2.536603 1  254             Rx   d 8 00 B0 00 3C 04 DF 47 B8
 2.538687 1  241             Rx   d 8 AA 00 00 00 00 00 00 79
 2.539095 1  221             Rx   d 8 00 4B 00 00 00 00 00 00
 2.539335 1  311             Rx   d 8 00 03 3B 3F 00 03 3A 7B
 2.550624 1  251             Rx   d 8 FF 52 00 41 FB 21 09 F2
 2.552605 1  252             Rx   d 8 FF 53 00 25 FB 22 31 87
 2.554597 1  253             Rx   d 8 00 AD 00 37 04 DF BE 15
 2.556616 1  254             Rx   d 8 00 AF 00 3C 04 DF 49 0C
 2.558621 1  241             Rx   d 8 AA 00 00 00 00 00 00 7A
 2.559098 1  221             Rx   d 8 00 4A 00 00 00 00 00 00
 2.559350 1  311             Rx   d 8 00 03 3B 40 00 03 3A 7C
 2.569630 1  261             Rx   d 8 01 04 00 1A 17 40 00 00
 2.570603 1  251             Rx   d 8 FF 52 00 41 FB 21 07 3C
 2.572589 1  252             Rx   d 8 FF 54 00 23 FB 22 2E D0
 2.574608 1  253             Rx   d 8 00 AD 00 37 04 DF BF 6F
 2.576617 1  254             Rx   d 8 00 B0 00 3C 04 DF 4B D0
 2.578701 1  241             Rx   d 8 AA 00 00 00 00 00 00 7B
 2.579097 1  221             Rx   d 8 00 4A 00 00 00 00 00 00
 2.579362 1  311             Rx   d 8 00 03 3B 42 00 03 3A 7E
 2.580610 1  262             Rx   d 8 01 00 00 1B 17 40 00 00
 2.587132 1  111             Tx   d 8 00 4B 00 00 00 00 00 00
 2.590605 1  251             Rx   d 8 FF 53 00 40 FB 21 04 88
 2.591614 1  263             Rx   d 8 01 00 00 1A 17 40 00 00
 2.592602 1  252             Rx   d 8 FF 53 00 25 FB 22 2D 79
 2.594685 1  253             Rx   d 8 00 AC 00 37 04 DF C2 22
 2.596683 1  254             Rx   d 8 00 AE 00 3A 04 DF 4E 8D
 2.598706 1  241             Rx   d 8 AA 00 00 00 00 00 00 7C
 2.599083 1  221             Rx   d 8 00 4A 00 00 00 00 00 00
 2.599341 1  311             Rx   d 8 00 03 3B 43 00 03 3A 7F
 2.602684 1  264             Rx   d 8 01 04 00 1A 17 40 00 00
 2.608696 1  231             Rx   d 8 00 02 3B 02 39 00 00 00
 2.610697 1  251             Rx   d 8 FF 53 00 3D FB 21 03 28
 2.612689 1  252             Rx   d 8 FF 54 00 23 FB 22 2A C4
 2.614695 1  253             Rx   d 8 00 AD 00 37 04 DF C4 D5
 2.616687 1  254             Rx   d 8 00 AF 00 3D 04 DF 4F DD
 2.618705 1  241             Rx   d 8 AA 00 00 00 00 00 00 7D
 2.619087 1  221             Rx   d 8 00 4A 00 00 00 00 00 00
 2.619338 1  311             Rx   d 8 00 03 3B 45 00 03 3A 81
 2.632948 1  251             Rx   d 8 FF 53 00 3F FB 21 00 77
 2.633153 1  252             Rx   d 8 FF 54 00 25 FB 22 28 11
 2.634686 1  253             Rx   d 8 00 AC 00 36 04 DF C6 32
 2.636680 1  254             Rx   d 8 00 AD 00 3A 04 DF 52 9C
 2.638749 1  241             Rx   d 8 AA 00 00 00 00 00 00 7E
 2.639074 1  221             Rx   d 8 00 4A 00 00 00 00 00 00
 2.639318 1  311             Rx   d 8 00 03 3B 46 00 03 3A 82
 2.639954 1  111             Tx   d 8 00 4B 00 00 00 00 00 00
 2.650712 1  251             Rx   d 8 FF 53 00 3D FB 20 FD BF
 2.652683 1  252             Rx   d 8 FF 54 00 25 FB 22 26 B8
 2.654704 1  253             Rx   d 8 00 AC 00 3C 04 DF C8 DD
 2.656699 1  254             Rx   d 8 00 AB 00 38 04 DF 55 43
 2.658767 1  241             Rx   d 8 AA 00 00 00 00 00 00 7F
 2.659093 1  221             Rx   d 8 00 4A 00 00 00 00 00 00
 2.659343 1  311             Rx   d 8 00 03 3B 48 00 03 3A 84
 2.669722 1  261             Rx   d 8 01 04 00 1A 17 40 00 00
 2.670687 1  251             Rx   d 8 FF 52 00 3D FB 20 FC 5E
 2.672684 1  252             Rx   d 8 FF 54 00 27 FB 22 24 05
 2.674701 1  253             Rx   d 8 00 AD 00 38 04 DF CB 98
 2.676692 1  254             Rx   d 8 00 AC 00 3A 04 DF 56 A5
 2.678720 1  241             Rx   d 8 AA 00 00 00 00 00 00 80
 2.679101 1  221             Rx   d 8 00 4A 00 00 00 00 00 00
 2.679351 1  311             Rx   d 8 00 03 3B 49 00 03 3A 85
 2.681170 1  262             Rx   d 8 01 00 00 1B 18 40 00 00
 2.688710 1  211             Rx   d 8 00 01 00 FF 00 00 00 00
 2.690724 1  251             Rx   d 8 FF 52 00 42 FB 20 F9 A5
 2.691725 1  263             Rx   d 8 01 00 00 1A 17 40 00 00
 2.692716 1  252             Rx   d 8 FF 54 00 28 FB 22 21 56
 2.692813 1  111             Tx   d 8 00 4B 00 00 00 00 00 00
 2.694723 1  253             Rx   d 8 00 AC 00 38 04 DF CC EE
 2.696728 1  254             Rx   d 8 00 AB 00 3A 04 DF 59 53
 2.698732 1  241             Rx   d 8 AA 00 00 00 00 00 00 81
 2.699093 1  221             Rx   d 8 00 4A 00 00 00 00 00 00
 2.699349 1  311             Rx   d 8 00 03 3B 4B 00 03 3A 87
 2.702742 1  264             Rx   d 8 01 04 00 1A 17 40 00 00
 2.710729 1  251             Rx   d 8 FF 52 00 37 FB 20 F6 E7
 2.712727 1  252             Rx   d 8 FF 54 00 25 FB 22 1F FC
 2.714732 1  253             Rx   d 8 00 AD 00 3A 04 DF CF A5
 2.716732 1  254             Rx   d 8 00 AD 00 3F 04 DF 5B FE
 2.718841 1  241             Rx   d 8 AA 00 00 00 00 00 00 82
 2.719087 1  221             Rx   d 8 00 4A 00 00 00 00 00 00
 2.719336 1  311             Rx   d 8 00 03 3B 4C 00 03 3A 88
 2.733099 1  251             Rx   d 8 FF 51 00 3C FB 20 F4 2D
 2.733349 1  252             Rx   d 8 FF 54 00 23 FB 22 1D 44
 2.734752 1  253             Rx   d 8 00 AC 00 38 04 DF D2 59
 2.736773 1  254             Rx   d 8 00 AB 00 3B 04 DF 5D 5A
 2.738853 1  241             Rx   d 8 AA 00 00 00 00 00 00 83
 2.739099 1  221             Rx   d 8 00 4A 00 01 00 00 00 00
 2.739336 1  311             Rx   d 8 00 03 3B 4E 00 03 3A 8A
 2.747461 1  111             Tx   d 8 00 4B 00 00 00 00 00 00
 2.750774 1  251             Rx   d 8 FF 51 00 3C FB 20 F2 CF
 2.752775 1  252             Rx   d 8 FF 52 00 23 FB 22 1A 8A
 2.754776 1  253             Rx   d 8 00 AC 00 38 04 DF D3 B2
 2.756826 1  254             Rx   d 8 00 AC 00 41 04 DF 5F FF
 2.758856 1  241             Rx   d 8 AA 00 00 00 00 00 00 84
 2.759108 1  221             Rx   d 8 00 4A 00 00 00 00 00 00
 2.759366 1  311             Rx   d 8 00 03 3B 4F 00 03 3A 8B
 2.769839 1  261             Rx   d 8 01 04 00 1A 17 40 00 00
 2.770819 1  251             Rx   d 8 FF 54 00 3C FB 20 F0 24
 2.772800 1  252             Rx   d 8 FF 53 00 23 FB 22 19 30
 2.774795 1  253             Rx   d 8 00 AC 00 38 04 DF D6 63
 2.776840 1  254             Rx   d 8 00 AC 00 40 04 DF 62 BC
 2.778811 1  241             Rx   d 8 AA 00 00 00 00 00 00 85
 2.779102 1  221             Rx   d 8 00 4A 00 00 00 00 00 00
 2.779350 1  311             Rx   d 8 00 03 3B 51 00 03 3A 8D
 2.780829 1  262             Rx   d 8 01 00 00 1B 18 40 00 00
 2.790845 1  251             Rx   d 8 FF 54 00 3D FB 20 EE C4
 2.791861 1  263             Rx   d 8 01 00 00 1A 17 40 00 00
 2.792857 1  252             Rx   d 8 FF 53 00 23 FB 22 16 77
 2.794848 1  253             Rx   d 8 00 AB 00 3A 04 DF D9 10
 2.796849 1  254             Rx   d 8 00 AB 00 41 04 DF 64 05
 2.798888 1  241             Rx   d 8 AA 00 00 00 00 00 00 86
 2.799139 1  221             Rx   d 8 00 4A 00 01 00 00 00 00
 2.799371 1  311             Rx   d 8 00 03 3B 52 00 03 3A 8E
 2.801775 1  111             Tx   d 8 00 4B 00 00 00 00 00 00
 2.802849 1  264             Rx   d 8 01 04 00 1A 17 40 00 00
 2.810847 1  251             Rx   d 8 FF 53 00 3D FB 20 EC 12
 2.812840 1  252             Rx   d 8 FF 51 00 23 FB 22 13 B9
 2.814844 1  253             Rx   d 8 00 AC 00 38 04 DF DA 71
 2.816840 1  254             Rx   d 8 00 AD 00 3F 04 DF 66 C8
 2.818894 1  361             Rx   d 8 2C 58 01 05 FF F0 00 E3
 2.819139 1  241             Rx   d 8 AA 00 00 00 00 00 00 87
 2.819370 1  221             Rx   d 8 00 4A 00 00 00 00 00 00
 2.833129 1  251             Rx   d 8 FF 54 00 3D FB 20 E9 64
 2.833356 1  252             Rx   d 8 FF 52 00 22 FB 22 11 02
 2.834877 1  253             Rx   d 8 00 AC 00 38 04 DF DD 1E
 2.836871 1  254             Rx   d 8 00 AC 00 3B 04 DF 69 84
 2.838952 1  241             Rx   d 8 AA 00 00 00 00 00 00 88
 2.839191 1  221             Rx   d 8 00 4A 00 00 00 00 00 00
 2.839407 1  311             Rx   d 8 00 03 3B 55 00 03 3A 91
 2.850880 1  251             Rx   d 8 FF 54 00 3D FB 20 E8 0B
 2.852879 1  252             Rx   d 8 FF 53 00 23 FB 22 0F AC
 2.853690 1  111             Tx   d 8 00 4B 00 00 00 00 00 00
 2.854870 1  253             Rx   d 8 00 AC 00 3C 04 DF DF CA
 2.856880 1  254             Rx   d 8 00 AE 00 3F 04 DF 6A DA
 2.858962 1  241             Rx   d 8 AA 00 00 00 00 00 00 89
 2.859220 1  221             Rx   d 8 00 4A 00 00 00 00 00 00
 2.859475 1  311             Rx   d 8 00 03 3B 57 00 03 3A 93
 2.869903 1  261             Rx   d 8 01 04 00 1A 17 40 00 00
 2.870901 1  251             Rx   d 8 FF 54 00 3C FB 20 E5 52
 2.872916 1  252             Rx   d 8 FF 53 00 20 FB 22 0C EE
 2.874901 1  253             Rx   d 8 00 AB 00 38 04 DF E1 25
 2.876906 1  254             Rx   d 8 00 AD 00 3B 04 DF 6D 96
 2.878991 1  241             Rx   d 8 AA 00 00 00 00 00 00 8A
 2.879239 1  221             Rx   d 8 00 4A 00 00 00 00 00 00
 2.879465 1  311             Rx   d 8 00 03 3B 58 00 03 3A 94
 2.881387 1  262             Rx   d 8 01 00 00 1B 18 40 00 00
 2.889000 1  211             Rx   d 8 00 01 00 FF 00 00 00 00
 2.890921 1  251             Rx   d 8 FF 53 00 3F FB 20 E2 98
 2.891975 1  263             Rx   d 8 01 00 00 1A 17 40 00 00
 2.892961 1  252             Rx   d 8 FF 53 00 20 FB 22 0B 97
 2.894946 1  253             Rx   d 8 00 AC 00 3C 04 DF E3 D8
 2.896963 1  254             Rx   d 8 00 AD 00 3C 04 DF 70 45
 2.898978 1  241             Rx   d 8 AA 00 00 00 00 00 00 8B
 2.899238 1  221             Rx   d 8 00 4A 00 00 00 00 00 00
 2.899471 1  311             Rx   d 8 00 03 3B 5A 00 03 3A 96
 2.902987 1  264             Rx   d 8 01 04 00 1A 17 40 00 00
 2.905299 1  111             Tx   d 8 00 4B 00 00 00 00 00 00
 2.910961 1  251             Rx   d 8 FF 53 00 3D FB 20 E1 40
 2.912962 1  252             Rx   d 8 FF 54 00 25 FB 22 08 E8
 2.914939 1  253             Rx   d 8 00 AC 00 3A 04 DF E6 8F
 2.916938 1  254             Rx   d 8 00 AD 00 3B 04 DF 71 AE
 2.919099 1  221             Rx   d 8 00 4A 00 00 00 00 00 00
 2.919342 1  311             Rx   d 8 00 03 3B 5B 00 03 3A 97
 2.919594 1  241             Rx   d 8 AA 00 00 00 00 00 00 8C
 2.933302 1  251             Rx   d 8 FF 53 00 3C FB 20 DE 8B
 2.933542 1  252             Rx   d 8 FF 54 00 23 FB 22 06 39
 2.934983 1  253             Rx   d 8 00 AC 00 3C 04 DF E7 E5
 2.936970 1  254             Rx   d 8 00 AC 00 3A 04 DF 74 58
 2.939110 1  221             Rx   d 8 00 4A 00 00 00 00 00 00
 2.939339 1  311             Rx   d 8 00 03 3B 5D 00 03 3A 99
 2.939573 1  241             Rx   d 8 AA 00 00 00 00 00 00 8D
 2.950971 1  251             Rx   d 8 FF 53 00 3A FB 20 DB CF
 2.952981 1  252             Rx   d 8 FF 54 00 23 FB 22 04 DB
 2.954986 1  253             Rx   d 8 00 AC 00 3A 04 DF EA 9C
 2.956997 1  254             Rx   d 8 00 AE 00 3F 04 DF 77 0E
 2.958219 1  111             Tx   d 8 00 4B 00 00 00 00 00 00
 2.959111 1  221             Rx   d 8 00 4A 00 00 00 00 00 00
 2.959337 1  311             Rx   d 8 00 03 3B 5E 00 03 3A 9A
 2.959599 1  241             Rx   d 8 AA 00 00 00 00 00 00 8E
 2.970005 1  261             Rx   d 8 01 04 00 1A 17 40 00 00
 2.971003 1  251             Rx   d 8 FF 53 00 3C FB 20 DA 7C
 2.972991 1  252             Rx   d 8 FF 54 00 23 FB 22 02 2E
 2.975004 1  253             Rx   d 8 00 AC 00 38 04 DF ED 51
 2.977022 1  254             Rx   d 8 00 AC 00 38 04 DF 78 6C
 2.979132 1  221             Rx   d 8 00 4A 00 00 00 00 00 00
 2.979355 1  311             Rx   d 8 00 03 3B 60 00 03 3A 9C
 2.979608 1  241             Rx   d 8 AA 00 00 00 00 00 00 8F
 2.981014 1  262             Rx   d 8 01 00 00 1B 18 40 00 00
 2.991024 1  251             Rx   d 8 FF 54 00 3B FB 20 D7 C4
 2.992008 1  263             Rx   d 8 01 00 00 1A 17 40 00 00
 2.993026 1  252             Rx   d 8 FF 54 00 23 FB 21 FF 7C
 2.995022 1  253             Rx   d 8 00 AD 00 3B 04 DF EE AC
 2.997040 1  254             Rx   d 8 00 AD 00 3D 04 DF 7B 1A
 2.999146 1  221             Rx   d 8 00 4A 00 00 00 00 00 00
 2.999355 1  311             Rx   d 8 00 03 3B 61 00 03 3A 9D
 2.999608 1  241             Rx   d 8 AA 00 00 00 00 00 00 90
 3.003035 1  264             Rx   d 8 01 04 00 1A 17 40 00 00
 3.010843 1  111             Tx   d 8 00 4B 00 00 00 00 00 00
 3.011061 1  251             Rx   d 8 FF 53 00 3C FB 20 D5 0B
 3.013053 1  252             Rx   d 8 FF 54 00 25 FB 21 FC C9
 3.015084 1  253             Rx   d 8 00 AC 00 38 04 DF F1 5F
 3.017072 1  254             Rx   d 8 00 AD 00 3C 04 DF 7D D7
 3.019140 1  221             Rx   d 8 00 4A 00 00 00 00 00 00
 3.019368 1  311             Rx   d 8 00 03 3B 63 00 03 3A 9F
 3.019691 1  241             Rx   d 8 AA 00 00 00 00 00 00 91
 3.033415 1  251             Rx   d 8 FF 52 00 3B FB 20 D2 53
 3.033616 1  252             Rx   d 8 FF 54 00 23 FB 21 FB 70
 3.035081 1  253             Rx   d 8 00 AC 00 3B 04 DF F4 0C
 3.037082 1  254             Rx   d 8 00 AD 00 3F 04 DF 7F 24
 3.039152 1  221             Rx   d 8 00 4A 00 00 00 00 00 00
 3.039384 1  311             Rx   d 8 00 03 3B 64 00 03 3A A0
 3.039694 1  241             Rx   d 8 AA 00 00 00 00 00 00 92
 3.051089 1  251             Rx   d 8 FF 52 00 3C FB 20 D0 FA
 3.053092 1  252             Rx   d 8 FF 54 00 25 FB 21 F8 C0
 3.055101 1  253             Rx   d 8 00 AC 00 3B 04 DF F5 6C
 3.057108 1  254             Rx   d 8 00 AD 00 3C 04 DF 81 E2
 3.059150 1  221             Rx   d 8 00 4A 00 00 00 00 00 00
 3.059375 1  311             Rx   d 8 00 03 3B 66 00 03 3A A2
 3.059689 1  241             Rx   d 8 AA 00 00 00 00 00 00 93
 3.063212 1  111             Tx   d 8 00 4B 00 00 00 00 00 00
 3.070097 1  261             Rx   d 8 01 04 00 1A 17 40 00 00
 3.071098 1  251             Rx   d 8 FF 52 00 3A FB 20 CE 3C
 3.073098 1  252             Rx   d 8 FF 54 00 22 FB 21 F6 05
 3.075105 1  253             Rx   d 8 00 AC 00 3B 04 DF F8 18
 3.077116 1  254             Rx   d 8 00 AB 00 3C 04 DF 84 8F
 3.079161 1  221             Rx   d 8 00 4A 00 00 00 00 00 00
 3.079394 1  311             Rx   d 8 00 03 3B 67 00 03 3A A3
 3.079690 1  241             Rx   d 8 AA 00 00 00 00 00 00 94
 3.081578 1  262             Rx   d 8 01 00 00 1B 18 40 00 00
 3.089211 1  211             Rx   d 8 00 01 00 FF 00 00 00 00
 3.091138 1  251             Rx   d 8 FF 52 00 3B FB 20 CC E0
 3.092125 1  263             Rx   d 8 01 00 00 1A 17 40 00 00
 3.093103 1  252             Rx   d 8 FF 53 00 23 FB 21 F4 A9
 3.095131 1  253             Rx   d 8 00 AD 00 3C 04 DF FA D2
 3.097131 1  254             Rx   d 8 00 AD 00 3C 04 DF 85 ED
 3.099163 1  221             Rx   d 8 00 4A 00 00 00 00 00 00
 3.099388 1  311             Rx   d 8 00 03 3B 69 00 03 3A A5
 3.099618 1  241             Rx   d 8 AA 00 00 00 00 00 00 95
 3.103137 1  264             Rx   d 8 01 04 00 1A 17 40 00 00
 3.109226 1  231             Rx   d 8 00 02 3B 02 25 00 00 00
 3.111145 1  251             Rx   d 8 FF 53 00 3C FB 20 CA 31
 3.113149 1  252             Rx   d 8 FF 53 00 23 FB 21 F1 F2
 3.115147 1  253             Rx   d 8 00 AD 00 41 04 DF FC 2B
 3.115382 1  111             Tx   d 8 00 4B 00 00 00 00 00 00
 3.117147 1  254             Rx   d 8 00 AB 00 3B 04 DF 88 9F
 3.119158 1  221             Rx   d 8 00 4A 00 00 00 00 00 00
 3.119380 1  311             Rx   d 8 00 03 3B 6A 00 03 3A A6
 3.119623 1  241             Rx   d 8 AA 00 00 00 00 00 00 96
 3.133439 1  251             Rx   d 8 FF 54 00 3B FB 20 C7 76
 3.133708 1  252             Rx   d 8 FF 53 00 23 FB 21 EF 3B
 3.135187 1  253             Rx   d 8 00 AD 00 3F 04 DF FE DE
 3.137212 1  254             Rx   d 8 00 AB 00 3F 04 DF 8B 40
 3.139177 1  221             Rx   d 8 00 4A 00 00 00 00 00 00
 3.139385 1  311             Rx   d 8 00 03 3B 6C 00 03 3A A8
 3.139697 1  241             Rx   d 8 AA 00 00 00 00 00 00 97
 3.151183 1  251             Rx   d 8 FF 53 00 38 FB 20 C6 16
 3.153174 1  252             Rx   d 8 FF 52 00 1E FB 21 ED D6
 3.155228 1  253             Rx   d 8 00 AD 00 3B 04 E0 01 98
 3.157217 1  254             Rx   d 8 00 AB 00 3A 04 DF 8C B1
 3.159151 1  221             Rx   d 8 00 4A 00 01 00 00 00 00
 3.159390 1  311             Rx   d 8 00 03 3B 6D 00 03 3A A9
 3.159610 1  241             Rx   d 8 AA 00 00 00 00 00 00 98
 3.168328 1  111             Tx   d 8 00 4B 00 00 00 00 00 00
 3.170210 1  261             Rx   d 8 01 04 00 1A 17 40 00 00
 3.171204 1  251             Rx   d 8 FF 53 00 3A FB 20 C3 67
 3.173204 1  252             Rx   d 8 FF 51 00 23 FB 21 EB 20
 3.175209 1  253             Rx   d 8 00 AD 00 3C 04 E0 02 EE
 3.177209 1  254             Rx   d 8 00 AD 00 3B 04 DF 8F 5C
 3.179145 1  221             Rx   d 8 00 4A 00 00 00 00 00 00
 3.179375 1  311             Rx   d 8 00 03 3B 6F 00 03 3A AB
 3.179695 1  241             Rx   d 8 AA 00 00 00 00 00 00 99
 3.181236 1  262             Rx   d 8 01 00 00 1B 18 40 00 00
 3.191228 1  251             Rx   d 8 FF 54 00 37 FB 20 C0 B1
 3.192223 1  263             Rx   d 8 01 00 00 1A 17 40 00 00
 3.193235 1  252             Rx   d 8 FF 52 00 20 FB 21 E8 68
 3.195240 1  253             Rx   d 8 00 AD 00 3B 04 E0 05 AA
 3.197238 1  254             Rx   d 8 00 AF 00 3C 04 DF 92 20
 3.199206 1  221             Rx   d 8 00 4A 00 00 00 00 00 00
 3.199398 1  311             Rx   d 8 00 03 3B 70 00 03 3A AC
 3.199695 1  241             Rx   d 8 AA 00 00 00 00 00 00 9A
 3.203244 1  264             Rx   d 8 01 04 00 1A 17 40 00 00
 3.211242 1  251             Rx   d 8 FF 52 00 36 FB 20 BD F2
 3.213252 1  252             Rx   d 8 FF 53 00 20 FB 21 E7 0E
 3.215246 1  253             Rx   d 8 00 AC 00 37 04 E0 08 5D
 3.217248 1  254             Rx   d 8 00 AD 00 38 04 DF 93 78
 3.219154 1  221             Rx   d 8 00 4A 00 00 00 00 00 00
 3.219383 1  311             Rx   d 8 00 03 3B 72 00 03 3A AE
 3.219697 1  241             Rx   d 8 AA 00 00 00 00 00 00 9B
 3.221858 1  111             Tx   d 8 00 4B 00 00 00 00 00 00
 3.233523 1  251             Rx   d 8 FF 52 00 35 FB 20 BC 93
 3.233738 1  252             Rx   d 8 FF 52 00 20 FB 21 E4 54
 3.235259 1  253             Rx   d 8 00 AD 00 3A 04 E0 09 BA
 3.237273 1  254             Rx   d 8 00 AF 00 3C 04 DF 96 34
 3.239152 1  221             Rx   d 8 00 4B 00 00 00 00 00 00
 3.239389 1  311             Rx   d 8 00 03 3B 73 00 03 3A AF
 3.239618 1  241             Rx   d 8 AA 00 00 00 00 00 00 9C
 3.251327 1  251             Rx   d 8 FF 52 00 36 FB 20 B9 DB
 3.253275 1  252             Rx   d 8 FF 54 00 20 FB 21 E1 A7
 3.255304 1  253             Rx   d 8 00 AD 00 37 04 E0 0C 70
 3.257314 1  254             Rx   d 8 00 AE 00 37 04 DF 98 F7
 3.259146 1  221             Rx   d 8 00 4A 00 00 00 00 00 00
 3.259383 1  311             Rx   d 8 00 03 3B 75 00 03 3A B1
 3.259697 1  241             Rx   d 8 AA 00 00 00 00 00 00 9D
 3.270319 1  261             Rx   d 8 01 04 00 1A 17 40 00 00
 3.271318 1  251             Rx   d 8 FF 52 00 37 FB 20 B7 24
 3.273348 1  252             Rx   d 8 FF 54 00 20 FB 21 E0 4E
 3.274957 1  111             Tx   d 8 00 4B 00 00 00 00 00 00
 3.275469 1  253             Rx   d 8 00 AD 00 38 04 E0 0F 23
 3.277318 1  254             Rx   d 8 00 AF 00 3B 04 DF 9A 48
 3.279153 1  221             Rx   d 8 00 4A 00 00 00 00 00 00
 3.279398 1  311             Rx   d 8 00 03 3B 76 00 03 3A B2
 3.279697 1  241             Rx   d 8 AA 00 00 00 00 00 00 9E
 3.281773 1  262             Rx   d 8 01 00 00 1B 18 40 00 00
 3.289385 1  211             Rx   d 8 00 01 00 FF 00 00 00 00
 3.291360 1  251             Rx   d 8 FF 52 00 35 FB 20 B5 C4
 3.292352 1  263             Rx   d 8 01 00 00 1A 17 40 00 00
 3.293331 1  252             Rx   d 8 FF 54 00 22 FB 21 DD 98
 3.295336 1  253             Rx   d 8 00 AD 00 37 04 E0 10 82
 3.297323 1  254             Rx   d 8 00 AF 00 37 04 DF 9D 0F
 3.299182 1  221             Rx   d 8 00 4A 00 00 00 00 00 00
 3.299397 1  311             Rx   d 8 00 03 3B 78 00 03 3A B4
 3.299691 1  241             Rx   d 8 AA 00 00 00 00 00 00 9F
 3.303346 1  264             Rx   d 8 01 04 00 1A 17 40 00 00
 3.311343 1  251             Rx   d 8 FF 52 00 35 FB 20 B3 0B
 3.313339 1  252             Rx   d 8 FF 54 00 20 FB 21 DA EA
 3.315339 1  253             Rx   d 8 00 AE 00 3A 04 E0 13 3D
 3.317348 1  254             Rx   d 8 00 AD 00 37 04 DF 9F C5
 3.319160 1  221             Rx   d 8 00 4A 00 00 00 00 00 00
 3.319389 1  311             Rx   d 8 00 03 3B 79 00 03 3A B5
 3.319690 1  361             Rx   d 8 2C 58 01 05 FF F1 00 E4
 3.319866 1  241             Rx   d 8 AA 00 00 00 00 00 00 A0
 3.327695 1  111             Tx   d 8 00 4B 00 00 00 00 00 00
 3.333730 1  251             Rx   d 8 FF 52 00 36 FB 20 B0 51
 3.333875 1  252             Rx   d 8 FF 54 00 22 FB 21 D9 91
 3.335402 1  253             Rx   d 8 00 AF 00 37 04 E0 15 FB
 3.337397 1  254             Rx   d 8 00 AF 00 37 04 DF A1 24
 3.339179 1  221             Rx   d 8 00 4B 00 00 00 00 00 00
 3.339400 1  311             Rx   d 8 00 03 3B 7B 00 03 3A B7
 3.339695 1  241             Rx   d 8 AA 00 00 00 00 00 00 A1
 3.351386 1  251             Rx   d 8 FF 53 00 31 FB 20 AE F6
 3.353387 1  252             Rx   d 8 FF 54 00 20 FB 21 D6 DD
 3.355385 1  253             Rx   d 8 00 AE 00 37 04 E0 17 51
 3.357386 1  254             Rx   d 8 00 AD 00 35 04 DF A3 DC
 3.359178 1  221             Rx   d 8 00 4A 00 00 00 00 00 00
 3.359397 1  311             Rx   d 8 00 03 3B 7C 00 03 3A B8
 3.359692 1  241             Rx   d 8 AA 00 00 00 00 00 00 A2
 3.370430 1  261             Rx   d 8 01 04 00 1A 17 40 00 00
 3.371442 1  251             Rx   d 8 FF 52 00 32 FB 20 AC 39
 3.373417 1  252             Rx   d 8 FF 54 00 23 FB 21 D4 30
 3.375432 1  253             Rx   d 8 00 AE 00 37 04 E0 1A 10
 3.377447 1  254             Rx   d 8 00 AE 00 38 04 DF A6 89
 3.379193 1  221             Rx   d 8 00 4A 00 00 00 00 00 00
 3.379446 1  311             Rx   d 8 00 03 3B 7E 00 03 3A BA
 3.379691 1  241             Rx   d 8 AA 00 00 00 00 00 00 A3
 3.381437 1  262             Rx   d 8 01 00 00 1B 18 40 00 00
 3.384803 1  111             Tx   d 8 00 4B 00 00 00 00 00 00
 3.391428 1  251             Rx   d 8 FF 51 00 32 FB 20 A9 7D
 3.392477 1  263             Rx   d 8 01 00 00 1A 17 40 00 00
 3.393427 1  252             Rx   d 8 FF 55 00 20 FB 21 D2 D7
 3.395434 1  253             Rx   d 8 00 AE 00 36 04 E0 1C CA
 3.397448 1  254             Rx   d 8 00 AD 00 33 04 DF A7 F1
 3.399185 1  221             Rx   d 8 00 4A 00 00 00 00 00 00
 3.399396 1  311             Rx   d 8 00 03 3B 7F 00 03 3A BB
 3.399688 1  241             Rx   d 8 AA 00 00 00 00 00 00 A4
 3.403437 1  264             Rx   d 8 01 04 00 1A 17 40 00 00
 3.411485 1  251             Rx   d 8 FF 51 00 32 FB 20 A8 1E
 3.413450 1  252             Rx   d 8 FF 55 00 23 FB 21 D0 27
 3.415467 1  253             Rx   d 8 00 AE 00 37 04 E0 1E 20
 3.417485 1  254             Rx   d 8 00 AD 00 36 04 DF AA 9D
 3.419211 1  221             Rx   d 8 00 4A 00 00 00 00 00 00
 3.419402 1  311             Rx   d 8 00 03 3B 81 00 03 3A BD
 3.419693 1  241             Rx   d 8 AA 00 00 00 00 00 00 A5
 3.433770 1  251             Rx   d 8 FF 52 00 2E FB 20 A5 63
 3.434063 1  252             Rx   d 8 FF 53 00 22 FB 21 CD 6B
 3.435466 1  253             Rx   d 8 00 AD 00 36 04 E0 20 D9
 3.437507 1  254             Rx   d 8 00 AE 00 37 04 DF AD 5C
 3.437577 1  111             Tx   d 8 00 4B 00 00 00 00 00 00
 3.439170 1  221             Rx   d 8 00 4A 00 00 00 00 00 00
 3.439397 1  311             Rx   d 8 00 03 3B 82 00 03 3A BE
 3.439687 1  241             Rx   d 8 AA 00 00 00 00 00 00 A6
 3.451470 1  251             Rx   d 8 FF 52 00 2D FB 20 A2 AA
 3.453470 1  252             Rx   d 8 FF 52 00 23 FB 21 CC 11
 3.455469 1  253             Rx   d 8 00 AD 00 35 04 E0 23 8F
 3.457504 1  254             Rx   d 8 00 AD 00 35 04 DF AE AE
 3.459196 1  221             Rx   d 8 00 4A 00 00 00 00 00 00
 3.459450 1  311             Rx   d 8 00 03 3B 84 00 03 3A C0
 3.459704 1  241             Rx   d 8 AA 00 00 00 00 00 00 A7
 3.470512 1  261             Rx   d 8 01 04 00 1A 17 40 00 00
 3.471513 1  251             Rx   d 8 FF 52 00 2D FB 20 A1 4D
 3.473527 1  252             Rx   d 8 FF 53 00 20 FB 21 C9 58
 3.475506 1  253             Rx   d 8 00 AE 00 35 04 E0 24 EF
 3.477539 1  254             Rx   d 8 00 AE 00 36 04 DF B1 6E
 3.479222 1  221             Rx   d 8 00 4B 00 00 00 00 00 00
 3.479404 1  311             Rx   d 8 00 03 3B 85 00 03 3A C1
 3.479699 1  241             Rx   d 8 AA 00 00 00 00 00 00 A8
 3.482060 1  262             Rx   d 8 01 00 00 1B 18 40 00 00
 3.489620 1  211             Rx   d 8 00 01 00 FF 00 00 00 00
 3.490713 1  111             Tx   d 8 00 4B 00 00 00 00 00 00
 3.491530 1  251             Rx   d 8 FF 53 00 2D FB 20 9E 9A
 3.492523 1  263             Rx   d 8 01 00 00 1A 17 40 00 00
 3.493572 1  252             Rx   d 8 FF 52 00 20 FB 21 C6 99
 3.495592 1  253             Rx   d 8 00 AD 00 31 04 E0 27 A6
 3.497537 1  254             Rx   d 8 00 AF 00 31 04 DF B4 38
 3.499173 1  221             Rx   d 8 00 4B 00 00 00 00 00 00
 3.499400 1  311             Rx   d 8 00 03 3B 87 00 03 3A C3
 3.499708 1  241             Rx   d 8 AA 00 00 00 00 00 00 A9
 3.503571 1  264             Rx   d 8 01 04 00 1A 17 40 00 00
 3.511557 1  251             Rx   d 8 FF 53 00 30 FB 20 9B E6
 3.513547 1  252             Rx   d 8 FF 52 00 1E FB 21 C5 3D
 3.515588 1  253             Rx   d 8 00 AE 00 37 04 E0 2A 5C
 3.517581 1  254             Rx   d 8 00 B0 00 35 04 DF B5 8A
 3.519197 1  221             Rx   d 8 00 4B 00 00 00 00 00 00
 3.519425 1  311             Rx   d 8 00 03 3B 88 00 03 3A C4
 3.519696 1  241             Rx   d 8 AA 00 00 00 00 00 00 AA
 3.533867 1  251             Rx   d 8 FF 53 00 31 FB 20 9A 88
 3.534109 1  252             Rx   d 8 FF 52 00 22 FB 21 C2 85
 3.535617 1  253             Rx   d 8 00 AD 00 31 04 E0 2B BB
 3.537616 1  254             Rx   d 8 00 AF 00 32 04 DF B8 52
 3.539217 1  221             Rx   d 8 00 4B 00 00 00 00 00 00
 3.539449 1  311             Rx   d 8 00 03 3B 8A 00 03 3A C6
 3.539693 1  241             Rx   d 8 AA 00 00 00 00 00 00 AB
 3.543608 1  111             Tx   d 8 00 4B 00 00 00 00 00 00
 3.551598 1  251             Rx   d 8 FF 53 00 32 FB 20 97 D6
 3.553620 1  252             Rx   d 8 FF 53 00 20 FB 21 BF D6
 3.555613 1  253             Rx   d 8 00 AC 00 35 04 E0 2E 68
 3.557626 1  254             Rx   d 8 00 AE 00 2E 04 DF BB 06
 3.559181 1  221             Rx   d 8 00 4A 00 00 00 00 00 00
 3.559440 1  311             Rx   d 8 00 03 3B 8B 00 03 3A C7
 3.559699 1  241             Rx   d 8 AA 00 00 00 00 00 00 AC
 3.570616 1  261             Rx   d 8 01 04 00 1A 17 40 00 00
 3.571601 1  251             Rx   d 8 FF 53 00 2D FB 20 95 1D
 3.573621 1  252             Rx   d 8 FF 53 00 20 FB 21 BE 78
 3.575613 1  253             Rx   d 8 00 AD 00 35 04 E0 31 1F
 3.577622 1  254             Rx   d 8 00 AF 00 31 04 DF BC 69
 3.579206 1  221             Rx   d 8 00 4A 00 00 00 00 00 00
 3.579437 1  311             Rx   d 8 00 03 3B 8D 00 03 3A C9
 3.580012 1  241             Rx   d 8 AA 00 00 00 00 00 00 AD
 3.581615 1  262             Rx   d 8 01 00 00 1B 18 40 00 00
 3.591612 1  251             Rx   d 8 FF 53 00 31 FB 20 93 C6
 3.592683 1  263             Rx   d 8 01 00 00 1A 17 40 00 00
 3.593694 1  252             Rx   d 8 FF 54 00 22 FB 21 BB CC
 3.595703 1  111             Tx   d 8 00 4B 00 00 00 00 00 00
 3.595740 1  253             Rx   d 8 00 AC 00 36 04 E0 32 76
 3.597693 1  254             Rx   d 8 00 AD 00 2D 04 DF BF 1D
 3.599221 1  221             Rx   d 8 00 4A 00 00 00 00 00 00
 3.599473 1  311             Rx   d 8 00 03 3B 8E 00 03 3A CA
 3.599720 1  241             Rx   d 8 AA 00 00 00 00 00 00 AE
 3.603694 1  264             Rx   d 8 01 04 00 1A 17 40 00 00
 3.609693 1  231             Rx   d 8 00 02 3B 02 11 00 00 00
 3.611691 1  251             Rx   d 8 FF 53 00 31 FB 20 91 11
 3.613695 1  252             Rx   d 8 FF 55 00 20 FB 21 B9 19
 3.615690 1  253             Rx   d 8 00 AC 00 35 04 E0 35 2A
 3.617692 1  254             Rx   d 8 00 AE 00 32 04 DF C1 C6
 3.619203 1  221             Rx   d 8 00 4A 00 00 00 00 00 00
 3.619422 1  311             Rx   d 8 00 03 3B 90 00 03 3A CC
 3.619721 1  241             Rx   d 8 AA 00 00 00 00 00 00 AF
 3.633963 1  251             Rx   d 8 FF 54 00 31 FB 20 8E 60
 3.634172 1  252             Rx   d 8 FF 55 00 20 FB 21 B7 C3
 3.635701 1  253             Rx   d 8 00 AC 00 33 04 E0 37 DE
 3.637713 1  254             Rx   d 8 00 AC 00 2D 04 DF C3 2F
 3.639187 1  221             Rx   d 8 00 4A 00 00 00 00 00 00
 3.639433 1  311             Rx   d 8 00 03 3B 91 00 03 3A CD
 3.639728 1  241             Rx   d 8 AA 00 00 00 00 00 00 B0
 3.648202 1  111             Tx   d 8 00 4B 00 00 00 00 00 00
 3.651698 1  251             Rx   d 8 FF 53 00 31 FB 20 8D 05
 3.653695 1  252             Rx   d 8 FF 54 00 22 FB 21 B5 0D
 3.655708 1  253             Rx   d 8 00 AC 00 33 04 E0 39 39
 3.657702 1  254             Rx   d 8 00 AD 00 30 04 DF C5 DC
 3.659228 1  221             Rx   d 8 00 4A 00 00 00 00 00 00
 3.659483 1  311             Rx   d 8 00 03 3B 93 00 03 3A CF
 3.659758 1  241             Rx   d 8 AA 00 00 00 00 00 00 B1
 3.670712 1  261             Rx   d 8 01 04 00 1A 17 40 00 00
 3.671728 1  251             Rx   d 8 FF 53 00 30 FB 20 8A 50
 3.673746 1  252             Rx   d 8 FF 54 00 23 FB 21 B2 60
 3.675746 1  253             Rx   d 8 00 AD 00 32 04 E0 3B F5
 3.677746 1  254             Rx   d 8 00 AE 00 2E 04 DF C8 9F
 3.679211 1  221             Rx   d 8 00 4A 00 00 00 00 00 00
 3.679453 1  311             Rx   d 8 00 03 3B 94 00 03 3A D0
 3.679772 1  241             Rx   d 8 AA 00 00 00 00 00 00 B2
 3.682293 1  262             Rx   d 8 01 00 00 1B 18 40 00 00
 3.689800 1  211             Rx   d 8 00 01 00 FF 00 00 00 00
 3.691745 1  251             Rx   d 8 FF 53 00 2D FB 20 87 98
 3.692743 1  263             Rx   d 8 01 00 00 1A 17 40 00 00
 3.693729 1  252             Rx   d 8 FF 55 00 22 FB 21 B1 07
 3.695744 1  253             Rx   d 8 00 AD 00 32 04 E0 3E A6
 3.697738 1  254             Rx   d 8 00 AD 00 2D 04 DF C9 F3
 3.699243 1  221             Rx   d 8 00 4A 00 00 00 00 00 00
 3.699465 1  311             Rx   d 8 00 03 3B 96 00 03 3A D2
 3.699825 1  241             Rx   d 8 AA 00 00 00 00 00 00 B3
 3.702597 1  111             Tx   d 8 00 4B 00 00 00 00 00 00
 3.703760 1  264             Rx   d 8 01 04 00 1A 17 40 00 00
 3.711762 1  251             Rx   d 8 FF 53 00 2E FB 20 86 41
 3.713751 1  252             Rx   d 8 FF 54 00 23 FB 21 AE 55
 3.715763 1  253             Rx   d 8 00 AD 00 32 04 E0 40 07
 3.717751 1  254             Rx   d 8 00 AE 00 2E 04 DF CC B0
 3.719241 1  221             Rx   d 8 00 4A 00 00 00 00 00 00
 3.719493 1  311             Rx   d 8 00 03 3B 97 00 03 3A D3
 3.719851 1  241             Rx   d 8 AA 00 00 00 00 00 00 B4
 3.734022 1  251             Rx   d 8 FF 53 00 2D FB 20 83 89
 3.734252 1  252             Rx   d 8 FF 55 00 23 FB 21 AB A2
 3.735774 1  253             Rx   d 8 00 AD 00 32 04 E0 42 B8
 3.737775 1  254             Rx   d 8 00 AC 00 2D 04 DF CF 69
 3.739235 1  221             Rx   d 8 00 4A 00 00 00 00 00 00
 3.739450 1  311             Rx   d 8 00 03 3B 99 00 03 3A D5
 3.739866 1  241             Rx   d 8 AA 00 00 00 00 00 00 B5
 3.751882 1  251             Rx   d 8 FF 53 00 2D FB 20 80 D6
 3.753834 1  252             Rx   d 8 FF 54 00 23 FB 21 AA 4D
 3.755585 1  111             Tx   d 8 00 4B 00 00 00 00 00 00
 3.755806 1  253             Rx   d 8 00 AC 00 32 04 E0 45 67
 3.757827 1  254             Rx   d 8 00 AD 00 2E 04 DF D0 BD
 3.759218 1  221             Rx   d 8 00 4A 00 00 00 00 00 00
 3.759446 1  311             Rx   d 8 00 03 3B 9A 00 03 3A D6
 3.759906 1  241             Rx   d 8 AA 00 00 00 00 00 00 B6
 3.770831 1  261             Rx   d 8 01 04 00 1A 17 40 00 00
 3.771851 1  251             Rx   d 8 FF 54 00 2D FB 20 7F 7D
 3.773834 1  252             Rx   d 8 FF 54 00 22 FB 21 A7 92
 3.775862 1  253             Rx   d 8 00 AC 00 35 04 E0 46 C2
 3.777812 1  254             Rx   d 8 00 AC 00 2B 04 DF D3 77
 3.779221 1  221             Rx   d 8 00 4A 00 00 00 00 00 00
 3.779466 1  311             Rx   d 8 00 03 3B 9C 00 03 3A D8
 3.779876 1  241             Rx   d 8 AA 00 00 00 00 00 00 B7
 3.781844 1  262             Rx   d 8 01 00 00 1B 18 40 00 00
 3.791853 1  251             Rx   d 8 FF 53 00 2D FB 20 7C CB
 3.792845 1  263             Rx   d 8 01 00 00 1A 17 40 00 00
 3.793867 1  252             Rx   d 8 FF 53 00 23 FB 21 A4 DF
 3.795825 1  253             Rx   d 8 00 AC 00 32 04 E0 49 75
 3.797858 1  254             Rx   d 8 00 AB 00 2C 04 DF D6 1D
 3.799215 1  221             Rx   d 8 00 4A 00 00 00 00 00 00
 3.799481 1  311             Rx   d 8 00 03 3B 9D 00 03 3A D9
 3.799847 1  241             Rx   d 8 AA 00 00 00 00 00 00 B8
 3.803852 1  264             Rx   d 8 01 04 00 1A 17 40 00 00
 3.807691 1  111             Tx   d 8 00 4B 00 00 00 00 00 00
 3.811858 1  251             Rx   d 8 FF 54 00 2E FB 20 7A 19
 3.813856 1  252             Rx   d 8 FF 53 00 20 FB 21 A3 7F
 3.815860 1  253             Rx   d 8 00 AC 00 32 04 E0 4C 29
 3.817848 1  254             Rx   d 8 00 AC 00 2D 04 DF D7 7F
 3.819235 1  221             Rx   d 8 00 4A 00 00 00 00 00 00
 3.819480 1  311             Rx   d 8 00 03 3B 9F 00 03 3A DB
 3.819948 1  361             Rx   d 8 2C 58 01 05 FF F3 00 E4
 3.820149 1  241             Rx   d 8 AA 00 00 00 00 00 00 B9
 3.834147 1  251             Rx   d 8 FF 54 00 31 FB 20 78 C6
 3.834385 1  252             Rx   d 8 FF 53 00 23 FB 21 A0 CA
 3.835881 1  253             Rx   d 8 00 AC 00 32 04 E0 4E E0
 3.837886 1  254             Rx   d 8 00 AB 00 2B 04 DF DA 2F
 3.839209 1  221             Rx   d 8 00 4A 00 00 00 00 00 00
 3.839443 1  311             Rx   d 8 00 03 3B A0 00 03 3A DC
 3.839956 1  241             Rx   d 8 AA 00 00 00 00 00 00 BA
 3.851886 1  251             Rx   d 8 FF 54 00 30 FB 20 76 0F
 3.853911 1  252             Rx   d 8 FF 51 00 20 FB 21 9E 07
 3.855889 1  253             Rx   d 8 00 AD 00 32 04 E0 50 3C
 3.857986 1  254             Rx   d 8 00 AE 00 30 04 DF DC DE
 3.859246 1  221             Rx   d 8 00 4A 00 00 00 00 00 00
 3.859489 1  311             Rx   d 8 00 03 3B A2 00 03 3A DD
 3.859998 1  241             Rx   d 8 AA 00 00 00 00 00 00 BB
 3.861213 1  111             Tx   d 8 00 4B 00 00 00 00 00 00
 3.870929 1  261             Rx   d 8 01 04 00 1A 17 40 00 00
 3.871992 1  251             Rx   d 8 FF 54 00 30 FB 20 73 5A
 3.873984 1  252             Rx   d 8 FF 51 00 20 FB 21 9C AF
 3.875963 1  253             Rx   d 8 00 AD 00 31 04 E0 52 F4
 3.877984 1  254             Rx   d 8 00 AD 00 2B 04 DF DE 48
 3.879251 1  221             Rx   d 8 00 4A 00 00 00 00 00 00
 3.879479 1  311             Rx   d 8 00 03 3B A3 00 03 3A DF
 3.879978 1  241             Rx   d 8 AA 00 00 00 00 00 00 BC
 3.882368 1  262             Rx   d 8 01 00 00 1B 18 40 00 00
 3.889999 1  211             Rx   d 8 00 01 00 FF 00 00 00 00
 3.891970 1  251             Rx   d 8 FF 53 00 30 FB 20 71 FE
 3.892931 1  263             Rx   d 8 01 00 00 1A 17 40 00 00
